Number of measurement points: 4166
Sample Rate (Hz): 100
Low limit Ch0 (V): -10
Upper limit Ch0 (V): 10
Low limit Ch1 (V): -10
Upper limit Ch1 (V): 10

Index	Time[s]	Ch0[V]	Ch1[V]
0	0	-0.00561130838468671	-0.860663834726438
1	0.01	-0.0030319644138217	-0.86195350671187
2	0.02	-0.00174229242838919	-0.86195350671187
3	0.03	-0.0030319644138217	-0.86195350671187
4	0.04	-0.0030319644138217	-0.860663834726438
5	0.05	-0.0043216363992542	-0.86195350671187
6	0.06	-0.0030319644138217	-0.86195350671187
7	0.07	-0.0030319644138217	-0.86195350671187
8	0.08	-0.0030319644138217	-0.86195350671187
9	0.09	-0.0030319644138217	-0.86195350671187
10	0.1	-0.0030319644138217	-0.86195350671187
11	0.11	-0.0030319644138217	-0.86195350671187
12	0.12	-0.0030319644138217	-0.86195350671187
13	0.13	-0.0030319644138217	-0.86195350671187
14	0.14	-0.0030319644138217	-0.86195350671187
15	0.15	-0.0030319644138217	-0.86195350671187
16	0.16	-0.0030319644138217	-0.86195350671187
17	0.17	-0.0030319644138217	-0.86195350671187
18	0.18	-0.0030319644138217	-0.860663834726438
19	0.19	-0.0030319644138217	-0.86195350671187
20	0.2	-0.0030319644138217	-0.86195350671187
21	0.21	-0.0030319644138217	-0.86195350671187
22	0.22	-0.0030319644138217	-0.86195350671187
23	0.23	-0.0030319644138217	-0.860663834726438
24	0.24	-0.0030319644138217	-0.860663834726438
25	0.25	-0.0030319644138217	-0.86195350671187
26	0.26	-0.0030319644138217	-0.86195350671187
27	0.27	-0.0030319644138217	-0.86195350671187
28	0.28	-0.0030319644138217	-0.860663834726438
29	0.29	-0.0030319644138217	-0.860663834726438
30	0.3	-0.0030319644138217	-0.860663834726438
31	0.31	-0.0043216363992542	-0.86195350671187
32	0.32	-0.00174229242838919	-0.860663834726438
33	0.33	-0.0030319644138217	-0.86195350671187
34	0.34	-0.0030319644138217	-0.86195350671187
35	0.35	-0.0030319644138217	-0.860663834726438
36	0.36	-0.0030319644138217	-0.86195350671187
37	0.37	-0.0030319644138217	-0.86195350671187
38	0.38	-0.00174229242838919	-0.860663834726438
39	0.39	-0.0043216363992542	-0.860663834726438
40	0.4	-0.00174229242838919	-0.860663834726438
41	0.41	-0.0030319644138217	-0.86195350671187
42	0.42	-0.00174229242838919	-0.86195350671187
43	0.43	-0.0030319644138217	-0.86195350671187
44	0.44	-0.0030319644138217	-0.86195350671187
45	0.45	-0.0030319644138217	-0.86195350671187
46	0.46	-0.0030319644138217	-0.86195350671187
47	0.47	-0.0043216363992542	-0.860663834726438
48	0.48	-0.0030319644138217	-0.86195350671187
49	0.49	-0.0030319644138217	-0.86195350671187
50	0.5	-0.0030319644138217	-0.860663834726438
51	0.51	-0.0030319644138217	-0.86195350671187
52	0.52	-0.0030319644138217	-0.86195350671187
53	0.53	-0.0030319644138217	-0.86195350671187
54	0.54	-0.0030319644138217	-0.860663834726438
55	0.55	-0.0030319644138217	-0.860663834726438
56	0.56	-0.0030319644138217	-0.860663834726438
57	0.57	-0.0030319644138217	-0.860663834726438
58	0.58	-0.00174229242838919	-0.860663834726438
59	0.59	-0.0030319644138217	-0.860663834726438
60	0.6	-0.0030319644138217	-0.860663834726438
61	0.61	-0.0030319644138217	-0.860663834726438
62	0.62	-0.0030319644138217	-0.86195350671187
63	0.63	-0.0030319644138217	-0.860663834726438
64	0.64	-0.0030319644138217	-0.860663834726438
65	0.65	-0.0030319644138217	-0.860663834726438
66	0.66	-0.0030319644138217	-0.860663834726438
67	0.67	-0.0043216363992542	-0.860663834726438
68	0.68	-0.0030319644138217	-0.860663834726438
69	0.69	-0.0030319644138217	-0.860663834726438
70	0.7	-0.0030319644138217	-0.860663834726438
71	0.71	-0.0030319644138217	-0.860663834726438
72	0.72	-0.0030319644138217	-0.860663834726438
73	0.73	-0.0030319644138217	-0.860663834726438
74	0.74	-0.0030319644138217	-0.860663834726438
75	0.75	-0.0030319644138217	-0.860663834726438
76	0.76	-0.0030319644138217	-0.860663834726438
77	0.77	-0.0030319644138217	-0.860663834726438
78	0.78	-0.0030319644138217	-0.860663834726438
79	0.79	-0.0030319644138217	-0.860663834726438
80	0.8	-0.00174229242838919	-0.860663834726438
81	0.81	-0.0030319644138217	-0.860663834726438
82	0.82	-0.00174229242838919	-0.860663834726438
83	0.83	-0.0030319644138217	-0.860663834726438
84	0.84	-0.0030319644138217	-0.860663834726438
85	0.85	-0.0030319644138217	-0.860663834726438
86	0.86	-0.0030319644138217	-0.860663834726438
87	0.87	-0.0030319644138217	-0.860663834726438
88	0.88	-0.00174229242838919	-0.860663834726438
89	0.89	-0.0030319644138217	-0.86195350671187
90	0.9	-0.0030319644138217	-0.860663834726438
91	0.91	-0.0030319644138217	-0.86195350671187
92	0.92	-0.0030319644138217	-0.860663834726438
93	0.93	-0.0030319644138217	-0.860663834726438
94	0.94	-0.0030319644138217	-0.860663834726438
95	0.95	-0.0030319644138217	-0.86195350671187
96	0.96	-0.0030319644138217	-0.860663834726438
97	0.97	-0.0030319644138217	-0.860663834726438
98	0.98	-0.00174229242838919	-0.860663834726438
99	0.99	-0.0030319644138217	-0.860663834726438
100	1	-0.0030319644138217	-0.860663834726438
101	1.01	-0.0030319644138217	-0.860663834726438
102	1.02	-0.0030319644138217	-0.860663834726438
103	1.03	-0.0030319644138217	-0.860663834726438
104	1.04	-0.0030319644138217	-0.860663834726438
105	1.05	-0.0030319644138217	-0.86195350671187
106	1.06	-0.0030319644138217	-0.860663834726438
107	1.07	-0.0030319644138217	-0.86195350671187
108	1.08	-0.0030319644138217	-0.860663834726438
109	1.09	-0.0043216363992542	-0.860663834726438
110	1.1	-0.0030319644138217	-0.860663834726438
111	1.11	-0.0043216363992542	-0.860663834726438
112	1.12	-0.0030319644138217	-0.86195350671187
113	1.13	-0.0030319644138217	-0.860663834726438
114	1.14	-0.0030319644138217	-0.86195350671187
115	1.15	-0.0030319644138217	-0.860663834726438
116	1.16	-0.0030319644138217	-0.860663834726438
117	1.17	-0.0030319644138217	-0.860663834726438
118	1.18	-0.0030319644138217	-0.860663834726438
119	1.19	-0.0030319644138217	-0.86195350671187
120	1.2	-0.0030319644138217	-0.86195350671187
121	1.21	-0.0030319644138217	-0.860663834726438
122	1.22	-0.0030319644138217	-0.86195350671187
123	1.23	-0.0030319644138217	-0.860663834726438
124	1.24	-0.0030319644138217	-0.86195350671187
125	1.25	-0.0030319644138217	-0.86195350671187
126	1.26	-0.0030319644138217	-0.860663834726438
127	1.27	-0.0030319644138217	-0.860663834726438
128	1.28	-0.00174229242838919	-0.860663834726438
129	1.29	-0.0030319644138217	-0.860663834726438
130	1.3	-0.0030319644138217	-0.86195350671187
131	1.31	-0.0030319644138217	-0.86195350671187
132	1.32	-0.0030319644138217	-0.860663834726438
133	1.33	-0.0030319644138217	-0.860663834726438
134	1.34	-0.0030319644138217	-0.86195350671187
135	1.35	-0.0030319644138217	-0.860663834726438
136	1.36	-0.0030319644138217	-0.86195350671187
137	1.37	-0.0030319644138217	-0.86195350671187
138	1.38	-0.0030319644138217	-0.860663834726438
139	1.39	-0.0030319644138217	-0.86195350671187
140	1.4	-0.00174229242838919	-0.860663834726438
141	1.41	-0.0030319644138217	-0.86195350671187
142	1.42	-0.0030319644138217	-0.86195350671187
143	1.43	-0.0030319644138217	-0.860663834726438
144	1.44	-0.0030319644138217	-0.860663834726438
145	1.45	-0.0030319644138217	-0.86195350671187
146	1.46	-0.0030319644138217	-0.860663834726438
147	1.47	-0.0030319644138217	-0.86195350671187
148	1.48	-0.0030319644138217	-0.86195350671187
149	1.49	-0.0043216363992542	-0.860663834726438
150	1.5	-0.0030319644138217	-0.860663834726438
151	1.51	-0.0030319644138217	-0.86195350671187
152	1.52	-0.0030319644138217	-0.86195350671187
153	1.53	-0.0030319644138217	-0.86195350671187
154	1.54	-0.0030319644138217	-0.86195350671187
155	1.55	-0.0030319644138217	-0.860663834726438
156	1.56	-0.0030319644138217	-0.86195350671187
157	1.57	-0.0030319644138217	-0.86195350671187
158	1.58	-0.0030319644138217	-0.860663834726438
159	1.59	-0.0030319644138217	-0.86195350671187
160	1.6	-0.0030319644138217	-0.86195350671187
161	1.61	-0.00174229242838919	-0.860663834726438
162	1.62	-0.0030319644138217	-0.860663834726438
163	1.63	-0.0043216363992542	-0.86195350671187
164	1.64	-0.0030319644138217	-0.86195350671187
165	1.65	-0.0030319644138217	-0.86195350671187
166	1.66	-0.0030319644138217	-0.86195350671187
167	1.67	-0.0030319644138217	-0.860663834726438
168	1.68	-0.0030319644138217	-0.86195350671187
169	1.69	-0.0030319644138217	-0.860663834726438
170	1.7	-0.0030319644138217	-0.86195350671187
171	1.71	-0.0030319644138217	-0.86195350671187
172	1.72	-0.00174229242838919	-0.86195350671187
173	1.73	-0.0030319644138217	-0.86195350671187
174	1.74	-0.00174229242838919	-0.86195350671187
175	1.75	-0.0030319644138217	-0.86195350671187
176	1.76	-0.0030319644138217	-0.860663834726438
177	1.77	-0.0030319644138217	-0.86195350671187
178	1.78	-0.0030319644138217	-0.86195350671187
179	1.79	-0.0030319644138217	-0.86195350671187
180	1.8	-0.0030319644138217	-0.86195350671187
181	1.81	-0.0030319644138217	-0.86195350671187
182	1.82	-0.0030319644138217	-0.86195350671187
183	1.83	-0.0030319644138217	-0.86195350671187
184	1.84	-0.0030319644138217	-0.86195350671187
185	1.85	-0.0030319644138217	-0.860663834726438
186	1.86	-0.0030319644138217	-0.86195350671187
187	1.87	-0.0030319644138217	-0.86195350671187
188	1.88	-0.0030319644138217	-0.86195350671187
189	1.89	-0.0030319644138217	-0.86195350671187
190	1.9	-0.0030319644138217	-0.860663834726438
191	1.91	-0.0030319644138217	-0.86195350671187
192	1.92	-0.0030319644138217	-0.86195350671187
193	1.93	-0.0030319644138217	-0.86195350671187
194	1.94	-0.0030319644138217	-0.86195350671187
195	1.95	-0.0030319644138217	-0.86195350671187
196	1.96	-0.0030319644138217	-0.860663834726438
197	1.97	-0.0043216363992542	-0.86195350671187
198	1.98	-0.00174229242838919	-0.860663834726438
199	1.99	-0.0030319644138217	-0.86195350671187
200	2	-0.0030319644138217	-0.86195350671187
201	2.01	-0.0030319644138217	-0.86195350671187
202	2.02	-0.0030319644138217	-0.86195350671187
203	2.03	-0.0030319644138217	-0.860663834726438
204	2.04	-0.0030319644138217	-0.86195350671187
205	2.05	-0.0030319644138217	-0.860663834726438
206	2.06	-0.0030319644138217	-0.86195350671187
207	2.07	-0.0030319644138217	-0.860663834726438
208	2.08	-0.0030319644138217	-0.860663834726438
209	2.09	-0.0030319644138217	-0.86195350671187
210	2.1	-0.0030319644138217	-0.86195350671187
211	2.11	-0.0030319644138217	-0.86195350671187
212	2.12	-0.0030319644138217	-0.86195350671187
213	2.13	-0.0030319644138217	-0.86195350671187
214	2.14	-0.0030319644138217	-0.86195350671187
215	2.15	-0.0030319644138217	-0.860663834726438
216	2.16	-0.0030319644138217	-0.86195350671187
217	2.17	-0.0030319644138217	-0.86195350671187
218	2.18	-0.0043216363992542	-0.86195350671187
219	2.19	-0.0030319644138217	-0.86195350671187
220	2.2	-0.0030319644138217	-0.86195350671187
221	2.21	-0.0043216363992542	-0.86195350671187
222	2.22	-0.0030319644138217	-0.86195350671187
223	2.23	-0.0030319644138217	-0.86195350671187
224	2.24	-0.0030319644138217	-0.86195350671187
225	2.25	-0.0030319644138217	-0.86195350671187
226	2.26	-0.0030319644138217	-0.86195350671187
227	2.27	-0.0030319644138217	-0.86195350671187
228	2.28	-0.0030319644138217	-0.86195350671187
229	2.29	-0.0030319644138217	-0.860663834726438
230	2.3	-0.0030319644138217	-0.86195350671187
231	2.31	-0.0030319644138217	-0.86195350671187
232	2.32	-0.00174229242838919	-0.86195350671187
233	2.33	-0.0030319644138217	-0.86195350671187
234	2.34	-0.0043216363992542	-0.86195350671187
235	2.35	-0.0043216363992542	-0.86195350671187
236	2.36	-0.0030319644138217	-0.86195350671187
237	2.37	-0.0030319644138217	-0.86195350671187
238	2.38	-0.0030319644138217	-0.86195350671187
239	2.39	-0.0030319644138217	-0.86195350671187
240	2.4	-0.0030319644138217	-0.860663834726438
241	2.41	-0.0030319644138217	-0.860663834726438
242	2.42	-0.0030319644138217	-0.86195350671187
243	2.43	-0.0030319644138217	-0.860663834726438
244	2.44	-0.0030319644138217	-0.86195350671187
245	2.45	-0.0030319644138217	-0.86195350671187
246	2.46	-0.0030319644138217	-0.86195350671187
247	2.47	-0.0030319644138217	-0.86195350671187
248	2.48	-0.0030319644138217	-0.86195350671187
249	2.49	-0.0030319644138217	-0.86195350671187
250	2.5	-0.0030319644138217	-0.86195350671187
251	2.51	-0.0030319644138217	-0.86195350671187
252	2.52	-0.0030319644138217	-0.86195350671187
253	2.53	-0.0030319644138217	-0.86195350671187
254	2.54	-0.0030319644138217	-0.86195350671187
255	2.55	-0.0043216363992542	-0.86195350671187
256	2.56	-0.0030319644138217	-0.86195350671187
257	2.57	-0.0030319644138217	-0.86195350671187
258	2.58	-0.0030319644138217	-0.86195350671187
259	2.59	-0.0030319644138217	-0.86195350671187
260	2.6	-0.0030319644138217	-0.86195350671187
261	2.61	-0.0030319644138217	-0.86195350671187
262	2.62	-0.0030319644138217	-0.86195350671187
263	2.63	-0.0043216363992542	-0.86195350671187
264	2.64	-0.0030319644138217	-0.86195350671187
265	2.65	-0.0030319644138217	-0.86195350671187
266	2.66	-0.0030319644138217	-0.86195350671187
267	2.67	-0.0030319644138217	-0.86195350671187
268	2.68	-0.0030319644138217	-0.86195350671187
269	2.69	-0.0030319644138217	-0.86195350671187
270	2.7	-0.0030319644138217	-0.86195350671187
271	2.71	-0.0030319644138217	-0.86195350671187
272	2.72	-0.0030319644138217	-0.86195350671187
273	2.73	-0.0030319644138217	-0.860663834726438
274	2.74	-0.0030319644138217	-0.86195350671187
275	2.75	-0.00174229242838919	-0.86195350671187
276	2.76	-0.0030319644138217	-0.86195350671187
277	2.77	-0.0030319644138217	-0.86195350671187
278	2.78	-0.00174229242838919	-0.86195350671187
279	2.79	-0.0030319644138217	-0.86195350671187
280	2.8	-0.0030319644138217	-0.86195350671187
281	2.81	-0.0030319644138217	-0.86195350671187
282	2.82	-0.0030319644138217	-0.86195350671187
283	2.83	-0.0030319644138217	-0.86195350671187
284	2.84	-0.0030319644138217	-0.86195350671187
285	2.85	-0.0030319644138217	-0.86195350671187
286	2.86	-0.0030319644138217	-0.86195350671187
287	2.87	-0.0030319644138217	-0.86195350671187
288	2.88	-0.0030319644138217	-0.86195350671187
289	2.89	-0.0030319644138217	-0.86195350671187
290	2.9	-0.0030319644138217	-0.86195350671187
291	2.91	-0.0043216363992542	-0.86195350671187
292	2.92	-0.0030319644138217	-0.86195350671187
293	2.93	-0.0030319644138217	-0.86195350671187
294	2.94	-0.0043216363992542	-0.86195350671187
295	2.95	-0.0030319644138217	-0.860663834726438
296	2.96	-0.0030319644138217	-0.86195350671187
297	2.97	-0.0030319644138217	-0.86195350671187
298	2.98	-0.0030319644138217	-0.86195350671187
299	2.99	-0.0030319644138217	-0.86195350671187
300	3	-0.0030319644138217	-0.86195350671187
301	3.01	-0.0030319644138217	-0.86195350671187
302	3.02	-0.0030319644138217	-0.86195350671187
303	3.03	-0.0030319644138217	-0.860663834726438
304	3.04	-0.0030319644138217	-0.86195350671187
305	3.05	-0.0043216363992542	-0.86195350671187
306	3.06	-0.0030319644138217	-0.86195350671187
307	3.07	-0.0043216363992542	-0.86195350671187
308	3.08	-0.0030319644138217	-0.86195350671187
309	3.09	-0.0030319644138217	-0.86195350671187
310	3.1	-0.00174229242838919	-0.86195350671187
311	3.11	-0.0030319644138217	-0.86195350671187
312	3.12	-0.0030319644138217	-0.86195350671187
313	3.13	-0.0043216363992542	-0.86195350671187
314	3.14	-0.0030319644138217	-0.86195350671187
315	3.15	-0.0030319644138217	-0.86195350671187
316	3.16	-0.0030319644138217	-0.86195350671187
317	3.17	-0.0030319644138217	-0.86195350671187
318	3.18	-0.0030319644138217	-0.86195350671187
319	3.19	-0.0030319644138217	-0.86195350671187
320	3.2	-0.0030319644138217	-0.86195350671187
321	3.21	-0.0030319644138217	-0.86195350671187
322	3.22	-0.0030319644138217	-0.86195350671187
323	3.23	-0.0030319644138217	-0.86195350671187
324	3.24	-0.0030319644138217	-0.86195350671187
325	3.25	-0.0030319644138217	-0.86195350671187
326	3.26	-0.0030319644138217	-0.86195350671187
327	3.27	-0.0030319644138217	-0.86195350671187
328	3.28	-0.0030319644138217	-0.86195350671187
329	3.29	-0.0030319644138217	-0.863243178697303
330	3.3	-0.0030319644138217	-0.86195350671187
331	3.31	-0.0030319644138217	-0.86195350671187
332	3.32	-0.0030319644138217	-0.863243178697303
333	3.33	-0.0030319644138217	-0.863243178697303
334	3.34	-0.0030319644138217	-0.863243178697303
335	3.35	-0.0030319644138217	-0.863243178697303
336	3.36	-0.0030319644138217	-0.863243178697303
337	3.37	-0.0030319644138217	-0.863243178697303
338	3.38	-0.0030319644138217	-0.863243178697303
339	3.39	-0.0030319644138217	-0.863243178697303
340	3.4	-0.0030319644138217	-0.864532850682735
341	3.41	-0.0030319644138217	-0.863243178697303
342	3.42	-0.0030319644138217	-0.864532850682735
343	3.43	-0.0030319644138217	-0.864532850682735
344	3.44	-0.0030319644138217	-0.864532850682735
345	3.45	-0.0030319644138217	-0.864532850682735
346	3.46	-0.00174229242838919	-0.864532850682735
347	3.47	-0.0030319644138217	-0.864532850682735
348	3.48	-0.0030319644138217	-0.865822522668168
349	3.49	-0.0030319644138217	-0.865822522668168
350	3.5	-0.0030319644138217	-0.864532850682735
351	3.51	-0.0030319644138217	-0.865822522668168
352	3.52	-0.00174229242838919	-0.864532850682735
353	3.53	-0.0030319644138217	-0.864532850682735
354	3.54	-0.0030319644138217	-0.865822522668168
355	3.55	-0.0030319644138217	-0.865822522668168
356	3.56	-0.0030319644138217	-0.865822522668168
357	3.57	-0.0030319644138217	-0.865822522668168
358	3.58	-0.0030319644138217	-0.865822522668168
359	3.59	-0.0043216363992542	-0.8671121946536
360	3.6	-0.0030319644138217	-0.865822522668168
361	3.61	-0.0030319644138217	-0.865822522668168
362	3.62	-0.0030319644138217	-0.865822522668168
363	3.63	-0.0030319644138217	-0.8671121946536
364	3.64	-0.0030319644138217	-0.865822522668168
365	3.65	-0.0030319644138217	-0.8671121946536
366	3.66	-0.0030319644138217	-0.865822522668168
367	3.67	-0.0030319644138217	-0.8671121946536
368	3.68	-0.0030319644138217	-0.8671121946536
369	3.69	-0.0030319644138217	-0.8671121946536
370	3.7	-0.0030319644138217	-0.8671121946536
371	3.71	-0.0030319644138217	-0.8671121946536
372	3.72	-0.0030319644138217	-0.865822522668168
373	3.73	-0.0030319644138217	-0.8671121946536
374	3.74	-0.0030319644138217	-0.8671121946536
375	3.75	-0.0030319644138217	-0.8671121946536
376	3.76	-0.0030319644138217	-0.8671121946536
377	3.77	-0.0030319644138217	-0.8671121946536
378	3.78	-0.0030319644138217	-0.8671121946536
379	3.79	-0.0030319644138217	-0.8671121946536
380	3.8	-0.0030319644138217	-0.8671121946536
381	3.81	-0.0030319644138217	-0.8671121946536
382	3.82	-0.0030319644138217	-0.8671121946536
383	3.83	-0.0030319644138217	-0.8671121946536
384	3.84	-0.0030319644138217	-0.8671121946536
385	3.85	-0.0030319644138217	-0.8671121946536
386	3.86	-0.00174229242838919	-0.8671121946536
387	3.87	-0.0030319644138217	-0.868401866639033
388	3.88	-0.0030319644138217	-0.868401866639033
389	3.89	-0.0030319644138217	-0.868401866639033
390	3.9	-0.0030319644138217	-0.868401866639033
391	3.91	-0.0030319644138217	-0.8671121946536
392	3.92	-0.0030319644138217	-0.868401866639033
393	3.93	-0.0030319644138217	-0.868401866639033
394	3.94	-0.0030319644138217	-0.868401866639033
395	3.95	-0.0030319644138217	-0.8671121946536
396	3.96	-0.0030319644138217	-0.868401866639033
397	3.97	-0.0030319644138217	-0.868401866639033
398	3.98	-0.0030319644138217	-0.868401866639033
399	3.99	-0.0030319644138217	-0.868401866639033
400	4	-0.0030319644138217	-0.868401866639033
401	4.01	-0.0030319644138217	-0.868401866639033
402	4.02	-0.0030319644138217	-0.868401866639033
403	4.03	-0.0030319644138217	-0.868401866639033
404	4.04	-0.0030319644138217	-0.868401866639033
405	4.05	-0.0030319644138217	-0.868401866639033
406	4.06	-0.0030319644138217	-0.869691538624465
407	4.07	-0.0030319644138217	-0.868401866639033
408	4.08	-0.0030319644138217	-0.868401866639033
409	4.09	-0.0030319644138217	-0.868401866639033
410	4.1	-0.0030319644138217	-0.868401866639033
411	4.11	-0.0030319644138217	-0.869691538624465
412	4.12	-0.0030319644138217	-0.868401866639033
413	4.13	-0.0030319644138217	-0.869691538624465
414	4.14	-0.0030319644138217	-0.868401866639033
415	4.15	-0.0030319644138217	-0.868401866639033
416	4.16	-0.0030319644138217	-0.869691538624465
417	4.17	-0.0030319644138217	-0.868401866639033
418	4.18	-0.0030319644138217	-0.868401866639033
419	4.19	-0.0030319644138217	-0.868401866639033
420	4.2	-0.0030319644138217	-0.868401866639033
