Number of measurement points: 1864
Sample Rate (Hz): 40
Low limit Ch0 (V): -10
Upper limit Ch0 (V): 10
Low limit Ch1 (V): -10
Upper limit Ch1 (V): 10

Index	Time[s]	Ch0[V]	Ch1[V]
0	0	-0.062356875743717	-0.260966361500323
1	0.025	-0.062356875743717	-0.25967668951489
2	0.05	-0.062356875743717	-0.25967668951489
3	0.075	-0.0610672037582844	-0.25967668951489
4	0.1	-0.062356875743717	-0.25967668951489
5	0.125	-0.0610672037582844	-0.25967668951489
6	0.15	-0.0610672037582844	-0.25967668951489
7	0.175	-0.0610672037582844	-0.25967668951489
8	0.2	-0.0610672037582844	-0.25967668951489
9	0.225	-0.0610672037582844	-0.25967668951489
10	0.25	-0.0610672037582844	-0.25967668951489
11	0.275	-0.0610672037582844	-0.25967668951489
12	0.3	-0.0597775317728519	-0.25967668951489
13	0.325	-0.0610672037582844	-0.25967668951489
14	0.35	-0.0610672037582844	-0.25967668951489
15	0.375	-0.0610672037582844	-0.25967668951489
16	0.4	-0.0597775317728519	-0.25967668951489
17	0.425	-0.0584878597874194	-0.25967668951489
18	0.45	-0.0610672037582844	-0.25967668951489
19	0.475	-0.0610672037582844	-0.25967668951489
20	0.5	-0.062356875743717	-0.25967668951489
21	0.525	-0.062356875743717	-0.25967668951489
22	0.55	-0.0610672037582844	-0.25967668951489
23	0.575	-0.0597775317728519	-0.25967668951489
24	0.6	-0.0571981878019869	-0.25967668951489
25	0.625	-0.0571981878019869	-0.25967668951489
26	0.65	-0.0597775317728519	-0.25967668951489
27	0.675	-0.0597775317728519	-0.25967668951489
28	0.7	-0.0597775317728519	-0.25967668951489
29	0.725	-0.0584878597874194	-0.25967668951489
30	0.75	-0.0597775317728519	-0.260966361500323
31	0.775	-0.0597775317728519	-0.25967668951489
32	0.8	-0.0597775317728519	-0.260966361500323
33	0.825	-0.0584878597874194	-0.25967668951489
34	0.85	-0.0636465477291495	-0.25967668951489
35	0.875	-0.0610672037582844	-0.25967668951489
36	0.9	-0.062356875743717	-0.25967668951489
37	0.925	-0.0584878597874194	-0.25967668951489
38	0.95	-0.0571981878019869	-0.25967668951489
39	0.975	-0.0610672037582844	-0.25967668951489
40	1	-0.0597775317728519	-0.25967668951489
41	1.025	-0.0597775317728519	-0.25967668951489
42	1.05	-0.0584878597874194	-0.25967668951489
43	1.075	-0.0597775317728519	-0.25967668951489
44	1.1	-0.062356875743717	-0.25967668951489
45	1.125	-0.0610672037582844	-0.25967668951489
46	1.15	-0.0584878597874194	-0.25967668951489
47	1.175	-0.0597775317728519	-0.25967668951489
48	1.2	-0.0584878597874194	-0.25967668951489
49	1.225	-0.062356875743717	-0.25967668951489
50	1.25	-0.0597775317728519	-0.25967668951489
51	1.275	-0.0597775317728519	-0.258387017529458
52	1.3	-0.0610672037582844	-0.25967668951489
53	1.325	-0.0597775317728519	-0.25967668951489
54	1.35	-0.0597775317728519	-0.25967668951489
55	1.375	-0.0597775317728519	-0.25967668951489
56	1.4	-0.0610672037582844	-0.260966361500323
57	1.425	-0.0584878597874194	-0.25967668951489
58	1.45	-0.0597775317728519	-0.25967668951489
59	1.475	-0.0597775317728519	-0.25967668951489
60	1.5	-0.062356875743717	-0.25967668951489
61	1.525	-0.0584878597874194	-0.25967668951489
62	1.55	-0.0597775317728519	-0.25967668951489
63	1.575	-0.0597775317728519	-0.25967668951489
64	1.6	-0.0597775317728519	-0.25967668951489
65	1.625	-0.0610672037582844	-0.25967668951489
66	1.65	-0.0610672037582844	-0.25967668951489
67	1.675	-0.0597775317728519	-0.25967668951489
68	1.7	-0.0597775317728519	-0.25967668951489
69	1.725	-0.0597775317728519	-0.25967668951489
70	1.75	-0.0610672037582844	-0.25967668951489
71	1.775	-0.0597775317728519	-0.25967668951489
72	1.8	-0.0610672037582844	-0.25967668951489
73	1.825	-0.0597775317728519	-0.25967668951489
74	1.85	-0.0610672037582844	-0.25967668951489
75	1.875	-0.0610672037582844	-0.25967668951489
76	1.9	-0.0610672037582844	-0.25967668951489
77	1.925	-0.0597775317728519	-0.25967668951489
78	1.95	-0.0610672037582844	-0.25967668951489
79	1.975	-0.0610672037582844	-0.25967668951489
80	2	-0.0584878597874194	-0.25967668951489
81	2.025	-0.0597775317728519	-0.25967668951489
82	2.05	-0.0597775317728519	-0.25967668951489
83	2.075	-0.0610672037582844	-0.25967668951489
84	2.1	-0.0597775317728519	-0.25967668951489
85	2.125	-0.0610672037582844	-0.25967668951489
86	2.15	-0.0610672037582844	-0.25967668951489
87	2.175	-0.0597775317728519	-0.25967668951489
88	2.2	-0.0584878597874194	-0.25967668951489
89	2.225	-0.0597775317728519	-0.25967668951489
90	2.25	-0.0584878597874194	-0.25967668951489
91	2.275	-0.0610672037582844	-0.25967668951489
92	2.3	-0.062356875743717	-0.25967668951489
93	2.325	-0.0610672037582844	-0.25967668951489
94	2.35	-0.0597775317728519	-0.25967668951489
95	2.375	-0.0584878597874194	-0.25967668951489
96	2.4	-0.0584878597874194	-0.25967668951489
97	2.425	-0.0610672037582844	-0.25967668951489
98	2.45	-0.0584878597874194	-0.25967668951489
99	2.475	-0.062356875743717	-0.25967668951489
100	2.5	-0.062356875743717	-0.25967668951489
101	2.525	-0.062356875743717	-0.25967668951489
102	2.55	-0.0597775317728519	-0.25967668951489
103	2.575	-0.062356875743717	-0.25967668951489
104	2.6	-0.0610672037582844	-0.25967668951489
105	2.625	-0.0610672037582844	-0.25967668951489
106	2.65	-0.0584878597874194	-0.25967668951489
107	2.675	-0.0571981878019869	-0.25967668951489
108	2.7	-0.0597775317728519	-0.25967668951489
109	2.725	-0.0597775317728519	-0.25967668951489
110	2.75	-0.0584878597874194	-0.25967668951489
111	2.775	-0.0610672037582844	-0.25967668951489
112	2.8	-0.0597775317728519	-0.25967668951489
113	2.825	-0.062356875743717	-0.25967668951489
114	2.85	-0.0610672037582844	-0.25967668951489
115	2.875	-0.062356875743717	-0.25967668951489
116	2.9	-0.0597775317728519	-0.25967668951489
117	2.925	-0.0597775317728519	-0.25967668951489
118	2.95	-0.0636465477291495	-0.25967668951489
119	2.975	-0.0584878597874194	-0.25967668951489
120	3	-0.0584878597874194	-0.25967668951489
121	3.025	-0.0597775317728519	-0.25967668951489
122	3.05	-0.0597775317728519	-0.25967668951489
123	3.075	-0.0597775317728519	-0.25967668951489
124	3.1	-0.0571981878019869	-0.25967668951489
125	3.125	-0.0597775317728519	-0.25967668951489
126	3.15	-0.0610672037582844	-0.25967668951489
127	3.175	-0.0584878597874194	-0.25967668951489
128	3.2	-0.0597775317728519	-0.258387017529458
129	3.225	-0.0584878597874194	-0.25967668951489
130	3.25	-0.0597775317728519	-0.258387017529458
131	3.275	-0.062356875743717	-0.258387017529458
132	3.3	-0.0597775317728519	-0.258387017529458
133	3.325	-0.0597775317728519	-0.25967668951489
134	3.35	-0.062356875743717	-0.258387017529458
135	3.375	-0.0597775317728519	-0.25967668951489
136	3.4	-0.0597775317728519	-0.25967668951489
137	3.425	-0.0610672037582844	-0.258387017529458
138	3.45	-0.0610672037582844	-0.258387017529458
139	3.475	-0.0610672037582844	-0.258387017529458
140	3.5	-0.0597775317728519	-0.258387017529458
141	3.525	-0.0610672037582844	-0.258387017529458
142	3.55	-0.0597775317728519	-0.258387017529458
143	3.575	-0.0610672037582844	-0.258387017529458
144	3.6	-0.0597775317728519	-0.258387017529458
145	3.625	-0.0597775317728519	-0.258387017529458
146	3.65	-0.0610672037582844	-0.258387017529458
147	3.675	-0.062356875743717	-0.25967668951489
148	3.7	-0.0610672037582844	-0.258387017529458
149	3.725	-0.0610672037582844	-0.258387017529458
150	3.75	-0.0584878597874194	-0.258387017529458
151	3.775	-0.062356875743717	-0.258387017529458
152	3.8	-0.0610672037582844	-0.25967668951489
153	3.825	-0.0610672037582844	-0.258387017529458
154	3.85	-0.0597775317728519	-0.258387017529458
155	3.875	-0.062356875743717	-0.258387017529458
156	3.9	-0.0610672037582844	-0.258387017529458
157	3.925	-0.0597775317728519	-0.258387017529458
158	3.95	-0.0597775317728519	-0.258387017529458
159	3.975	-0.062356875743717	-0.258387017529458
160	4	-0.0597775317728519	-0.258387017529458
161	4.025	-0.0610672037582844	-0.258387017529458
162	4.05	-0.0584878597874194	-0.25967668951489
163	4.075	-0.062356875743717	-0.258387017529458
164	4.1	-0.0571981878019869	-0.257097345544025
165	4.125	-0.0610672037582844	-0.258387017529458
166	4.15	-0.0610672037582844	-0.258387017529458
167	4.175	-0.062356875743717	-0.258387017529458
168	4.2	-0.062356875743717	-0.258387017529458
169	4.225	-0.062356875743717	-0.258387017529458
170	4.25	-0.0610672037582844	-0.258387017529458
171	4.275	-0.0597775317728519	-0.258387017529458
172	4.3	-0.0597775317728519	-0.258387017529458
173	4.325	-0.0597775317728519	-0.258387017529458
174	4.35	-0.0597775317728519	-0.258387017529458
175	4.375	-0.0597775317728519	-0.258387017529458
176	4.4	-0.0584878597874194	-0.25967668951489
177	4.425	-0.0610672037582844	-0.258387017529458
178	4.45	-0.0597775317728519	-0.258387017529458
179	4.475	-0.0597775317728519	-0.258387017529458
180	4.5	-0.0597775317728519	-0.258387017529458
181	4.525	-0.0610672037582844	-0.258387017529458
182	4.55	-0.0597775317728519	-0.258387017529458
183	4.575	-0.0584878597874194	-0.25967668951489
184	4.6	-0.0597775317728519	-0.258387017529458
185	4.625	-0.0597775317728519	-0.25967668951489
186	4.65	-0.0597775317728519	-0.258387017529458
187	4.675	-0.0597775317728519	-0.258387017529458
188	4.7	-0.0597775317728519	-0.258387017529458
189	4.725	-0.0610672037582844	-0.258387017529458
190	4.75	-0.0597775317728519	-0.258387017529458
191	4.775	-0.0597775317728519	-0.258387017529458
192	4.8	-0.0597775317728519	-0.258387017529458
193	4.825	-0.0610672037582844	-0.258387017529458
194	4.85	-0.0584878597874194	-0.25967668951489
195	4.875	-0.0610672037582844	-0.258387017529458
196	4.9	-0.0584878597874194	-0.258387017529458
197	4.925	-0.0597775317728519	-0.25967668951489
198	4.95	-0.0610672037582844	-0.258387017529458
199	4.975	-0.062356875743717	-0.258387017529458
200	5	-0.0597775317728519	-0.25967668951489
201	5.025	-0.0610672037582844	-0.258387017529458
202	5.05	-0.0610672037582844	-0.258387017529458
203	5.075	-0.0610672037582844	-0.258387017529458
204	5.1	-0.0584878597874194	-0.258387017529458
205	5.125	-0.0610672037582844	-0.258387017529458
206	5.15	-0.0597775317728519	-0.258387017529458
207	5.175	-0.0584878597874194	-0.258387017529458
208	5.2	-0.0584878597874194	-0.258387017529458
209	5.225	-0.0584878597874194	-0.258387017529458
210	5.25	-0.0610672037582844	-0.258387017529458
211	5.275	-0.0610672037582844	-0.25967668951489
212	5.3	-0.0584878597874194	-0.25967668951489
213	5.325	-0.0597775317728519	-0.25967668951489
214	5.35	-0.0610672037582844	-0.25967668951489
215	5.375	-0.0610672037582844	-0.258387017529458
216	5.4	-0.062356875743717	-0.25967668951489
217	5.425	-0.0597775317728519	-0.25967668951489
218	5.45	-0.0610672037582844	-0.258387017529458
219	5.475	-0.062356875743717	-0.258387017529458
220	5.5	-0.0571981878019869	-0.258387017529458
221	5.525	-0.0610672037582844	-0.258387017529458
222	5.55	-0.0584878597874194	-0.258387017529458
223	5.575	-0.0610672037582844	-0.25967668951489
224	5.6	-0.0610672037582844	-0.25967668951489
225	5.625	-0.0610672037582844	-0.258387017529458
226	5.65	-0.0597775317728519	-0.258387017529458
227	5.675	-0.062356875743717	-0.258387017529458
228	5.7	-0.0597775317728519	-0.258387017529458
229	5.725	-0.0636465477291495	-0.258387017529458
230	5.75	-0.0610672037582844	-0.258387017529458
231	5.775	-0.0597775317728519	-0.258387017529458
232	5.8	-0.0610672037582844	-0.25967668951489
233	5.825	-0.0610672037582844	-0.25967668951489
234	5.85	-0.0597775317728519	-0.258387017529458
235	5.875	-0.062356875743717	-0.258387017529458
236	5.9	-0.0584878597874194	-0.258387017529458
237	5.925	-0.062356875743717	-0.258387017529458
238	5.95	-0.0610672037582844	-0.258387017529458
239	5.975	-0.0610672037582844	-0.258387017529458
240	6	-0.0597775317728519	-0.25967668951489
241	6.025	-0.0584878597874194	-0.258387017529458
242	6.05	-0.0597775317728519	-0.258387017529458
243	6.075	-0.0597775317728519	-0.258387017529458
244	6.1	-0.0610672037582844	-0.258387017529458
245	6.125	-0.0610672037582844	-0.258387017529458
246	6.15	-0.0610672037582844	-0.258387017529458
247	6.175	-0.062356875743717	-0.25967668951489
248	6.2	-0.0584878597874194	-0.25967668951489
249	6.225	-0.0610672037582844	-0.258387017529458
250	6.25	-0.0597775317728519	-0.258387017529458
251	6.275	-0.0610672037582844	-0.258387017529458
252	6.3	-0.0584878597874194	-0.258387017529458
253	6.325	-0.062356875743717	-0.258387017529458
254	6.35	-0.062356875743717	-0.258387017529458
255	6.375	-0.0610672037582844	-0.258387017529458
256	6.4	-0.0597775317728519	-0.258387017529458
257	6.425	-0.0610672037582844	-0.25967668951489
258	6.45	-0.0571981878019869	-0.25967668951489
259	6.475	-0.062356875743717	-0.258387017529458
260	6.5	-0.0584878597874194	-0.258387017529458
261	6.525	-0.0610672037582844	-0.258387017529458
262	6.55	-0.0610672037582844	-0.25967668951489
263	6.575	-0.062356875743717	-0.25967668951489
264	6.6	-0.0610672037582844	-0.258387017529458
265	6.625	-0.0571981878019869	-0.258387017529458
266	6.65	-0.062356875743717	-0.25967668951489
267	6.675	-0.0610672037582844	-0.258387017529458
268	6.7	-0.0597775317728519	-0.25967668951489
269	6.725	-0.0610672037582844	-0.258387017529458
270	6.75	-0.0610672037582844	-0.25967668951489
271	6.775	-0.062356875743717	-0.25967668951489
272	6.8	-0.0597775317728519	-0.258387017529458
273	6.825	-0.0610672037582844	-0.258387017529458
274	6.85	-0.0597775317728519	-0.258387017529458
275	6.875	-0.062356875743717	-0.258387017529458
276	6.9	-0.0584878597874194	-0.25967668951489
277	6.925	-0.062356875743717	-0.25967668951489
278	6.95	-0.0597775317728519	-0.258387017529458
279	6.975	-0.0597775317728519	-0.25967668951489
280	7	-0.0610672037582844	-0.258387017529458
281	7.025	-0.0610672037582844	-0.258387017529458
282	7.05	-0.0610672037582844	-0.258387017529458
283	7.075	-0.0636465477291495	-0.25967668951489
284	7.1	-0.0597775317728519	-0.25967668951489
285	7.125	-0.0597775317728519	-0.258387017529458
286	7.15	-0.0610672037582844	-0.258387017529458
287	7.175	-0.0610672037582844	-0.258387017529458
288	7.2	-0.0597775317728519	-0.25967668951489
289	7.225	-0.0597775317728519	-0.25967668951489
290	7.25	-0.0597775317728519	-0.258387017529458
291	7.275	-0.0597775317728519	-0.258387017529458
292	7.3	-0.0584878597874194	-0.258387017529458
293	7.325	-0.0597775317728519	-0.258387017529458
294	7.35	-0.0584878597874194	-0.258387017529458
295	7.375	-0.0597775317728519	-0.258387017529458
296	7.4	-0.0584878597874194	-0.258387017529458
297	7.425	-0.0610672037582844	-0.25967668951489
298	7.45	-0.0597775317728519	-0.258387017529458
299	7.475	-0.0597775317728519	-0.258387017529458
300	7.5	-0.0610672037582844	-0.258387017529458
301	7.525	-0.062356875743717	-0.25967668951489
302	7.55	-0.0584878597874194	-0.25967668951489
303	7.575	-0.0610672037582844	-0.258387017529458
304	7.6	-0.0597775317728519	-0.25967668951489
305	7.625	-0.0610672037582844	-0.258387017529458
306	7.65	-0.0597775317728519	-0.258387017529458
307	7.675	-0.0610672037582844	-0.258387017529458
308	7.7	-0.0584878597874194	-0.258387017529458
309	7.725	-0.0610672037582844	-0.258387017529458
310	7.75	-0.062356875743717	-0.25967668951489
311	7.775	-0.062356875743717	-0.258387017529458
312	7.8	-0.0610672037582844	-0.258387017529458
313	7.825	-0.0597775317728519	-0.258387017529458
314	7.85	-0.0597775317728519	-0.25967668951489
315	7.875	-0.0597775317728519	-0.258387017529458
316	7.9	-0.0597775317728519	-0.25967668951489
317	7.925	-0.0610672037582844	-0.258387017529458
318	7.95	-0.0597775317728519	-0.25967668951489
319	7.975	-0.0597775317728519	-0.258387017529458
320	8	-0.0597775317728519	-0.258387017529458
321	8.025	-0.0610672037582844	-0.25967668951489
322	8.05	-0.0571981878019869	-0.25967668951489
323	8.075	-0.0584878597874194	-0.25967668951489
324	8.1	-0.0610672037582844	-0.25967668951489
325	8.125	-0.062356875743717	-0.258387017529458
326	8.15	-0.0584878597874194	-0.258387017529458
327	8.175	-0.062356875743717	-0.258387017529458
328	8.2	-0.0584878597874194	-0.258387017529458
329	8.225	-0.0610672037582844	-0.258387017529458
330	8.25	-0.0610672037582844	-0.258387017529458
331	8.275	-0.0610672037582844	-0.257097345544025
332	8.3	-0.0571981878019869	-0.258387017529458
333	8.325	-0.0597775317728519	-0.257097345544025
334	8.35	-0.0584878597874194	-0.257097345544025
335	8.375	-0.0597775317728519	-0.257097345544025
336	8.4	-0.0584878597874194	-0.255807673558593
337	8.425	-0.0597775317728519	-0.255807673558593
338	8.45	-0.0571981878019869	-0.25451800157316
339	8.475	-0.0571981878019869	-0.25451800157316
340	8.5	-0.0559085158165544	-0.253228329587728
341	8.525	-0.0584878597874194	-0.25451800157316
342	8.55	-0.0571981878019869	-0.253228329587728
343	8.575	-0.0597775317728519	-0.251938657602295
344	8.6	-0.0571981878019869	-0.250648985616863
345	8.625	-0.0597775317728519	-0.250648985616863
346	8.65	-0.0571981878019869	-0.250648985616863
347	8.675	-0.0571981878019869	-0.24935931363143
348	8.7	-0.0571981878019869	-0.248069641645998
349	8.725	-0.0559085158165544	-0.248069641645998
350	8.75	-0.0559085158165544	-0.246779969660565
351	8.775	-0.0571981878019869	-0.245490297675133
352	8.8	-0.0559085158165544	-0.2442006256897
353	8.825	-0.0597775317728519	-0.2442006256897
354	8.85	-0.0559085158165544	-0.2442006256897
355	8.875	-0.0584878597874194	-0.242910953704268
356	8.9	-0.0584878597874194	-0.241621281718835
357	8.925	-0.0610672037582844	-0.240331609733403
358	8.95	-0.062356875743717	-0.23904193774797
359	8.975	-0.062356875743717	-0.23904193774797
360	9	-0.0597775317728519	-0.237752265762538
361	9.025	-0.0636465477291495	-0.237752265762538
362	9.05	-0.0636465477291495	-0.236462593777105
363	9.075	-0.064936219714582	-0.235172921791673
364	9.1	-0.062356875743717	-0.235172921791673
365	9.125	-0.0688052356708795	-0.23388324980624
366	9.15	-0.064936219714582	-0.232593577820808
367	9.175	-0.067515563685447	-0.232593577820808
368	9.2	-0.0636465477291495	-0.231303905835375
369	9.225	-0.067515563685447	-0.230014233849943
370	9.25	-0.064936219714582	-0.22872456186451
371	9.275	-0.064936219714582	-0.22872456186451
372	9.3	-0.064936219714582	-0.227434889879078
373	9.325	-0.067515563685447	-0.22872456186451
374	9.35	-0.0662258917000145	-0.227434889879078
375	9.375	-0.0636465477291495	-0.226145217893645
376	9.4	-0.064936219714582	-0.226145217893645
377	9.425	-0.0662258917000145	-0.226145217893645
378	9.45	-0.0662258917000145	-0.224855545908213
379	9.475	-0.0636465477291495	-0.224855545908213
380	9.5	-0.0636465477291495	-0.224855545908213
381	9.525	-0.0662258917000145	-0.22356587392278
382	9.55	-0.064936219714582	-0.22356587392278
383	9.575	-0.0636465477291495	-0.22356587392278
384	9.6	-0.064936219714582	-0.22356587392278
385	9.625	-0.064936219714582	-0.22356587392278
386	9.65	-0.0636465477291495	-0.222276201937348
387	9.675	-0.064936219714582	-0.222276201937348
388	9.7	-0.064936219714582	-0.220986529951915
389	9.725	-0.0636465477291495	-0.220986529951915
390	9.75	-0.0636465477291495	-0.220986529951915
391	9.775	-0.0636465477291495	-0.220986529951915
392	9.8	-0.0636465477291495	-0.219696857966483
393	9.825	-0.064936219714582	-0.220986529951915
394	9.85	-0.062356875743717	-0.220986529951915
395	9.875	-0.0636465477291495	-0.219696857966483
396	9.9	-0.0636465477291495	-0.219696857966483
397	9.925	-0.0636465477291495	-0.219696857966483
398	9.95	-0.0636465477291495	-0.219696857966483
399	9.975	-0.064936219714582	-0.219696857966483
400	10	-0.0636465477291495	-0.219696857966483
401	10.025	-0.0636465477291495	-0.219696857966483
402	10.05	-0.0610672037582844	-0.21840718598105
403	10.075	-0.064936219714582	-0.21840718598105
404	10.1	-0.0636465477291495	-0.21840718598105
405	10.125	-0.062356875743717	-0.21840718598105
406	10.15	-0.062356875743717	-0.21840718598105
407	10.175	-0.062356875743717	-0.21840718598105
408	10.2	-0.062356875743717	-0.21840718598105
409	10.225	-0.0636465477291495	-0.21840718598105
410	10.25	-0.0636465477291495	-0.21840718598105
411	10.275	-0.0584878597874194	-0.217117513995618
412	10.3	-0.0610672037582844	-0.217117513995618
413	10.325	-0.0597775317728519	-0.21840718598105
414	10.35	-0.0610672037582844	-0.217117513995618
415	10.375	-0.0597775317728519	-0.217117513995618
416	10.4	-0.0584878597874194	-0.217117513995618
417	10.425	-0.0597775317728519	-0.217117513995618
