Number of measurement points: 3286
Sample Rate (Hz): 40
Low limit Ch0 (V): -10
Upper limit Ch0 (V): 10
Low limit Ch1 (V): -10
Upper limit Ch1 (V): 10

Index	Time[s]	Ch0[V]	Ch1[V]
0	0	-0.00174229242838919	0.459960278356448
1	0.025	-0.00174229242838919	0.459960278356448
2	0.05	-0.00174229242838919	0.459960278356448
3	0.075	-0.0030319644138217	0.459960278356448
4	0.1	-0.00174229242838919	0.459960278356448
5	0.125	-0.00174229242838919	0.459960278356448
6	0.15	-0.0030319644138217	0.459960278356448
7	0.175	-0.00174229242838919	0.459960278356448
8	0.2	-0.00174229242838919	0.459960278356448
9	0.225	-0.00174229242838919	0.459960278356448
10	0.25	-0.00174229242838919	0.459960278356448
11	0.275	-0.00174229242838919	0.459960278356448
12	0.3	-0.00174229242838919	0.46124995034188
13	0.325	-0.00174229242838919	0.459960278356448
14	0.35	-0.0030319644138217	0.459960278356448
15	0.375	-0.0030319644138217	0.46124995034188
16	0.4	-0.0030319644138217	0.459960278356448
17	0.425	-0.00174229242838919	0.459960278356448
18	0.45	-0.0030319644138217	0.459960278356448
19	0.475	-0.00174229242838919	0.459960278356448
20	0.5	-0.00174229242838919	0.459960278356448
21	0.525	-0.0030319644138217	0.459960278356448
22	0.55	-0.00174229242838919	0.46124995034188
23	0.575	-0.00174229242838919	0.46124995034188
24	0.6	-0.0030319644138217	0.459960278356448
25	0.625	-0.00174229242838919	0.459960278356448
26	0.65	-0.0030319644138217	0.459960278356448
27	0.675	-0.00174229242838919	0.46124995034188
28	0.7	-0.00174229242838919	0.459960278356448
29	0.725	-0.00174229242838919	0.459960278356448
30	0.75	-0.00174229242838919	0.459960278356448
31	0.775	-0.0030319644138217	0.46124995034188
32	0.8	-0.00174229242838919	0.459960278356448
33	0.825	-0.00174229242838919	0.459960278356448
34	0.85	-0.00174229242838919	0.459960278356448
35	0.875	-0.00174229242838919	0.46124995034188
36	0.9	-0.0030319644138217	0.459960278356448
37	0.925	-0.0030319644138217	0.46124995034188
38	0.95	-0.00174229242838919	0.459960278356448
39	0.975	-0.0030319644138217	0.459960278356448
40	1	-0.0030319644138217	0.459960278356448
41	1.025	-0.00174229242838919	0.459960278356448
42	1.05	-0.00174229242838919	0.459960278356448
43	1.075	-0.00174229242838919	0.459960278356448
44	1.1	-0.00174229242838919	0.459960278356448
45	1.125	-0.00174229242838919	0.459960278356448
46	1.15	-0.00174229242838919	0.459960278356448
47	1.175	-0.0030319644138217	0.459960278356448
48	1.2	-0.0030319644138217	0.46124995034188
49	1.225	-0.00174229242838919	0.459960278356448
50	1.25	-0.00174229242838919	0.459960278356448
51	1.275	-0.0030319644138217	0.459960278356448
52	1.3	-0.00174229242838919	0.459960278356448
53	1.325	-0.00174229242838919	0.459960278356448
54	1.35	-0.00174229242838919	0.459960278356448
55	1.375	-0.00174229242838919	0.459960278356448
56	1.4	-0.00174229242838919	0.459960278356448
57	1.425	-0.00174229242838919	0.458670606371015
58	1.45	-0.00174229242838919	0.459960278356448
59	1.475	-0.00174229242838919	0.459960278356448
60	1.5	-0.00174229242838919	0.458670606371015
61	1.525	-0.00174229242838919	0.459960278356448
62	1.55	-0.0030319644138217	0.458670606371015
63	1.575	-0.00174229242838919	0.458670606371015
64	1.6	-0.00174229242838919	0.458670606371015
65	1.625	-0.00174229242838919	0.458670606371015
66	1.65	-0.00174229242838919	0.458670606371015
67	1.675	-0.00174229242838919	0.458670606371015
68	1.7	-0.00174229242838919	0.458670606371015
69	1.725	-0.00174229242838919	0.458670606371015
70	1.75	-0.00174229242838919	0.458670606371015
71	1.775	-0.0030319644138217	0.458670606371015
72	1.8	-0.00174229242838919	0.458670606371015
73	1.825	-0.00174229242838919	0.458670606371015
74	1.85	-0.0030319644138217	0.458670606371015
75	1.875	-0.00174229242838919	0.457380934385583
76	1.9	-0.00174229242838919	0.457380934385583
77	1.925	-0.00174229242838919	0.457380934385583
78	1.95	-0.00174229242838919	0.45609126240015
79	1.975	-0.00174229242838919	0.457380934385583
80	2	-0.00174229242838919	0.457380934385583
81	2.025	-0.00174229242838919	0.45609126240015
82	2.05	-0.00174229242838919	0.45609126240015
83	2.075	-0.00174229242838919	0.45609126240015
84	2.1	-0.00174229242838919	0.45609126240015
85	2.125	-0.00174229242838919	0.45609126240015
86	2.15	-0.00174229242838919	0.45609126240015
87	2.175	-0.00174229242838919	0.454801590414718
88	2.2	-0.00174229242838919	0.454801590414718
89	2.225	-0.0030319644138217	0.454801590414718
90	2.25	-0.00174229242838919	0.454801590414718
91	2.275	-0.0030319644138217	0.454801590414718
92	2.3	-0.00174229242838919	0.453511918429285
93	2.325	-0.00174229242838919	0.453511918429285
94	2.35	-0.0030319644138217	0.453511918429285
95	2.375	-0.00174229242838919	0.453511918429285
96	2.4	-0.0030319644138217	0.452222246443853
97	2.425	-0.0030319644138217	0.452222246443853
98	2.45	-0.0030319644138217	0.452222246443853
99	2.475	-0.0030319644138217	0.45093257445842
100	2.5	-0.0030319644138217	0.452222246443853
101	2.525	-0.0030319644138217	0.45093257445842
102	2.55	-0.0030319644138217	0.45093257445842
103	2.575	-0.0030319644138217	0.45093257445842
104	2.6	-0.0030319644138217	0.449642902472988
105	2.625	-0.0043216363992542	0.45093257445842
106	2.65	-0.0030319644138217	0.449642902472988
107	2.675	-0.0030319644138217	0.449642902472988
108	2.7	-0.0030319644138217	0.448353230487555
109	2.725	-0.0043216363992542	0.448353230487555
110	2.75	-0.0030319644138217	0.448353230487555
111	2.775	-0.0030319644138217	0.448353230487555
112	2.8	-0.0030319644138217	0.448353230487555
113	2.825	-0.0030319644138217	0.447063558502123
114	2.85	-0.0030319644138217	0.447063558502123
115	2.875	-0.0043216363992542	0.447063558502123
116	2.9	-0.0043216363992542	0.447063558502123
117	2.925	-0.0043216363992542	0.447063558502123
118	2.95	-0.0043216363992542	0.44577388651669
119	2.975	-0.0043216363992542	0.447063558502123
120	3	-0.0030319644138217	0.447063558502123
121	3.025	-0.0043216363992542	0.44577388651669
122	3.05	-0.0043216363992542	0.44577388651669
123	3.075	-0.00561130838468671	0.44577388651669
124	3.1	-0.0043216363992542	0.44577388651669
125	3.125	-0.00561130838468671	0.44577388651669
126	3.15	-0.0043216363992542	0.444484214531258
127	3.175	-0.0043216363992542	0.444484214531258
128	3.2	-0.00561130838468671	0.444484214531258
129	3.225	-0.00561130838468671	0.444484214531258
130	3.25	-0.00561130838468671	0.444484214531258
131	3.275	-0.00561130838468671	0.444484214531258
132	3.3	-0.00561130838468671	0.444484214531258
133	3.325	-0.00561130838468671	0.444484214531258
134	3.35	-0.00561130838468671	0.443194542545825
135	3.375	-0.0043216363992542	0.443194542545825
136	3.4	-0.00561130838468671	0.443194542545825
137	3.425	-0.00561130838468671	0.443194542545825
138	3.45	-0.00561130838468671	0.441904870560393
139	3.475	-0.0043216363992542	0.443194542545825
140	3.5	-0.0043216363992542	0.441904870560393
141	3.525	-0.0043216363992542	0.441904870560393
142	3.55	-0.00561130838468671	0.441904870560393
143	3.575	-0.0043216363992542	0.441904870560393
144	3.6	-0.0043216363992542	0.441904870560393
145	3.625	-0.00561130838468671	0.441904870560393
146	3.65	-0.0043216363992542	0.44061519857496
147	3.675	-0.00561130838468671	0.441904870560393
148	3.7	-0.0043216363992542	0.44061519857496
149	3.725	-0.0043216363992542	0.44061519857496
150	3.75	-0.0043216363992542	0.439325526589528
151	3.775	-0.0043216363992542	0.439325526589528
152	3.8	-0.0043216363992542	0.439325526589528
153	3.825	-0.0043216363992542	0.439325526589528
154	3.85	-0.0043216363992542	0.438035854604095
155	3.875	-0.0043216363992542	0.438035854604095
156	3.9	-0.0030319644138217	0.438035854604095
157	3.925	-0.0030319644138217	0.438035854604095
158	3.95	-0.0030319644138217	0.438035854604095
159	3.975	-0.0043216363992542	0.438035854604095
160	4	-0.0030319644138217	0.436746182618663
161	4.025	-0.0043216363992542	0.436746182618663
162	4.05	-0.0030319644138217	0.436746182618663
163	4.075	-0.0030319644138217	0.436746182618663
164	4.1	-0.0030319644138217	0.43545651063323
165	4.125	-0.00174229242838919	0.436746182618663
166	4.15	-0.00174229242838919	0.43545651063323
167	4.175	-0.0030319644138217	0.434166838647798
168	4.2	-0.00174229242838919	0.434166838647798
169	4.225	-0.0030319644138217	0.434166838647798
170	4.25	-0.00174229242838919	0.434166838647798
171	4.275	-0.0030319644138217	0.434166838647798
172	4.3	-0.0030319644138217	0.434166838647798
173	4.325	-0.0030319644138217	0.432877166662365
174	4.35	-0.00174229242838919	0.432877166662365
175	4.375	-0.00174229242838919	0.432877166662365
176	4.4	-0.00174229242838919	0.432877166662365
177	4.425	-0.00174229242838919	0.432877166662365
178	4.45	-0.00174229242838919	0.431587494676933
179	4.475	-0.00174229242838919	0.431587494676933
180	4.5	-0.0030319644138217	0.431587494676933
181	4.525	-0.00174229242838919	0.4302978226915
182	4.55	-0.0030319644138217	0.4302978226915
183	4.575	-0.00174229242838919	0.4302978226915
184	4.6	-0.00174229242838919	0.4302978226915
185	4.625	-0.0030319644138217	0.4302978226915
186	4.65	-0.0030319644138217	0.429008150706068
187	4.675	-0.0030319644138217	0.429008150706068
188	4.7	-0.0030319644138217	0.429008150706068
189	4.725	-0.0030319644138217	0.429008150706068
190	4.75	-0.0030319644138217	0.429008150706068
191	4.775	-0.0030319644138217	0.427718478720635
192	4.8	-0.0030319644138217	0.427718478720635
193	4.825	-0.0030319644138217	0.427718478720635
194	4.85	-0.0030319644138217	0.427718478720635
195	4.875	-0.0030319644138217	0.427718478720635
196	4.9	-0.0043216363992542	0.426428806735203
197	4.925	-0.0030319644138217	0.426428806735203
198	4.95	-0.0043216363992542	0.42513913474977
199	4.975	-0.0043216363992542	0.426428806735203
200	5	-0.0043216363992542	0.42513913474977
201	5.025	-0.0043216363992542	0.42513913474977
202	5.05	-0.0043216363992542	0.42513913474977
203	5.075	-0.0043216363992542	0.42513913474977
204	5.1	-0.0043216363992542	0.42513913474977
205	5.125	-0.0043216363992542	0.423849462764338
206	5.15	-0.0043216363992542	0.423849462764338
207	5.175	-0.0043216363992542	0.423849462764338
208	5.2	-0.0043216363992542	0.423849462764338
209	5.225	-0.0030319644138217	0.422559790778905
210	5.25	-0.0043216363992542	0.422559790778905
211	5.275	-0.0043216363992542	0.422559790778905
212	5.3	-0.0043216363992542	0.422559790778905
213	5.325	-0.0043216363992542	0.422559790778905
214	5.35	-0.0043216363992542	0.421270118793473
215	5.375	-0.0043216363992542	0.421270118793473
216	5.4	-0.0043216363992542	0.421270118793473
217	5.425	-0.00561130838468671	0.41998044680804
218	5.45	-0.0043216363992542	0.41998044680804
219	5.475	-0.0043216363992542	0.41998044680804
220	5.5	-0.0043216363992542	0.41998044680804
221	5.525	-0.0030319644138217	0.418690774822608
222	5.55	-0.0043216363992542	0.418690774822608
223	5.575	-0.0030319644138217	0.418690774822608
224	5.6	-0.0043216363992542	0.418690774822608
225	5.625	-0.0030319644138217	0.418690774822608
226	5.65	-0.0030319644138217	0.417401102837175
227	5.675	-0.0030319644138217	0.417401102837175
228	5.7	-0.0030319644138217	0.417401102837175
229	5.725	-0.0030319644138217	0.417401102837175
230	5.75	-0.0030319644138217	0.417401102837175
231	5.775	-0.0030319644138217	0.416111430851743
232	5.8	-0.0030319644138217	0.417401102837175
233	5.825	-0.0030319644138217	0.416111430851743
234	5.85	-0.0030319644138217	0.416111430851743
235	5.875	-0.0030319644138217	0.416111430851743
236	5.9	-0.0030319644138217	0.41482175886631
237	5.925	-0.00174229242838919	0.41482175886631
238	5.95	-0.0030319644138217	0.41482175886631
239	5.975	-0.0030319644138217	0.41482175886631
240	6	-0.0030319644138217	0.41482175886631
241	6.025	-0.00174229242838919	0.41482175886631
242	6.05	-0.0030319644138217	0.413532086880878
243	6.075	-0.00174229242838919	0.413532086880878
244	6.1	-0.00174229242838919	0.412242414895445
245	6.125	-0.0030319644138217	0.412242414895445
246	6.15	-0.00174229242838919	0.412242414895445
247	6.175	-0.00174229242838919	0.412242414895445
248	6.2	-0.00174229242838919	0.412242414895445
249	6.225	-0.00174229242838919	0.412242414895445
250	6.25	-0.00174229242838919	0.412242414895445
251	6.275	-0.00174229242838919	0.410952742910013
252	6.3	-0.00174229242838919	0.410952742910013
253	6.325	-0.00174229242838919	0.40966307092458
254	6.35	-0.0030319644138217	0.40966307092458
255	6.375	-0.00174229242838919	0.410952742910013
256	6.4	-0.00174229242838919	0.40966307092458
257	6.425	-0.00174229242838919	0.40966307092458
258	6.45	-0.00174229242838919	0.40966307092458
259	6.475	-0.0030319644138217	0.408373398939148
260	6.5	-0.0030319644138217	0.408373398939148
261	6.525	-0.00174229242838919	0.408373398939148
262	6.55	-0.0030319644138217	0.407083726953715
263	6.575	-0.0030319644138217	0.408373398939148
264	6.6	-0.00174229242838919	0.408373398939148
265	6.625	-0.0030319644138217	0.407083726953715
266	6.65	-0.00174229242838919	0.407083726953715
267	6.675	-0.0030319644138217	0.407083726953715
268	6.7	-0.0030319644138217	0.405794054968283
269	6.725	-0.0030319644138217	0.407083726953715
270	6.75	-0.00174229242838919	0.405794054968283
271	6.775	-0.0030319644138217	0.405794054968283
272	6.8	-0.0030319644138217	0.405794054968283
273	6.825	-0.00174229242838919	0.405794054968283
274	6.85	-0.00174229242838919	0.40450438298285
275	6.875	-0.0030319644138217	0.40450438298285
276	6.9	-0.00174229242838919	0.40450438298285
277	6.925	-0.00174229242838919	0.40450438298285
278	6.95	-0.00174229242838919	0.403214710997418
279	6.975	-0.00174229242838919	0.403214710997418
280	7	-0.00174229242838919	0.40450438298285
281	7.025	-0.00174229242838919	0.403214710997418
282	7.05	-0.0030319644138217	0.403214710997418
283	7.075	-0.00174229242838919	0.403214710997418
284	7.1	-0.0030319644138217	0.401925039011985
285	7.125	-0.00174229242838919	0.401925039011985
286	7.15	-0.00174229242838919	0.401925039011985
287	7.175	-0.00174229242838919	0.401925039011985
288	7.2	-0.0030319644138217	0.401925039011985
289	7.225	-0.00174229242838919	0.401925039011985
290	7.25	-0.00174229242838919	0.400635367026553
291	7.275	-0.0030319644138217	0.401925039011985
292	7.3	-0.00174229242838919	0.400635367026553
293	7.325	-0.00174229242838919	0.400635367026553
294	7.35	-0.0030319644138217	0.400635367026553
295	7.375	-0.0030319644138217	0.400635367026553
296	7.4	-0.00174229242838919	0.400635367026553
297	7.425	-0.00174229242838919	0.39934569504112
298	7.45	-0.00174229242838919	0.400635367026553
299	7.475	-0.00174229242838919	0.39934569504112
300	7.5	-0.0030319644138217	0.39934569504112
301	7.525	-0.00174229242838919	0.39934569504112
302	7.55	-0.00174229242838919	0.39934569504112
303	7.575	-0.00174229242838919	0.398056023055688
304	7.6	-0.00174229242838919	0.39934569504112
305	7.625	-0.0030319644138217	0.398056023055688
306	7.65	-0.00174229242838919	0.398056023055688
307	7.675	-0.00174229242838919	0.398056023055688
308	7.7	-0.00174229242838919	0.398056023055688
309	7.725	-0.00174229242838919	0.398056023055688
310	7.75	-0.00174229242838919	0.396766351070255
311	7.775	-0.00174229242838919	0.396766351070255
312	7.8	-0.00174229242838919	0.396766351070255
313	7.825	-0.00174229242838919	0.395476679084823
314	7.85	-0.00174229242838919	0.395476679084823
315	7.875	-0.00174229242838919	0.395476679084823
316	7.9	-0.0030319644138217	0.395476679084823
317	7.925	-0.00174229242838919	0.395476679084823
318	7.95	-0.00174229242838919	0.395476679084823
319	7.975	-0.00174229242838919	0.39418700709939
320	8	-0.00174229242838919	0.39418700709939
321	8.025	-0.0030319644138217	0.39418700709939
322	8.05	-0.00174229242838919	0.39418700709939
323	8.075	-0.00174229242838919	0.39418700709939
324	8.1	-0.00174229242838919	0.39418700709939
325	8.125	-0.00174229242838919	0.392897335113958
326	8.15	-0.00174229242838919	0.392897335113958
327	8.175	-0.0030319644138217	0.392897335113958
328	8.2	-0.00174229242838919	0.392897335113958
329	8.225	-0.0030319644138217	0.391607663128525
330	8.25	-0.00174229242838919	0.391607663128525
331	8.275	-0.00174229242838919	0.391607663128525
332	8.3	-0.0030319644138217	0.391607663128525
333	8.325	-0.0030319644138217	0.390317991143093
334	8.35	-0.0030319644138217	0.390317991143093
335	8.375	-0.0030319644138217	0.390317991143093
336	8.4	-0.00174229242838919	0.390317991143093
337	8.425	-0.0030319644138217	0.38902831915766
338	8.45	-0.0030319644138217	0.38902831915766
339	8.475	-0.0030319644138217	0.38902831915766
340	8.5	-0.00174229242838919	0.38902831915766
341	8.525	-0.0030319644138217	0.38902831915766
342	8.55	-0.0030319644138217	0.387738647172228
343	8.575	-0.0043216363992542	0.387738647172228
344	8.6	-0.0030319644138217	0.387738647172228
345	8.625	-0.0043216363992542	0.387738647172228
346	8.65	-0.0043216363992542	0.386448975186795
347	8.675	-0.0043216363992542	0.386448975186795
348	8.7	-0.0043216363992542	0.386448975186795
349	8.725	-0.0043216363992542	0.386448975186795
350	8.75	-0.0043216363992542	0.385159303201362
351	8.775	-0.0043216363992542	0.385159303201362
352	8.8	-0.00561130838468671	0.385159303201362
353	8.825	-0.0043216363992542	0.38386963121593
354	8.85	-0.00561130838468671	0.38386963121593
355	8.875	-0.00561130838468671	0.38386963121593
356	8.9	-0.00561130838468671	0.38386963121593
357	8.925	-0.00561130838468671	0.382579959230497
358	8.95	-0.00561130838468671	0.382579959230497
359	8.975	-0.00561130838468671	0.382579959230497
360	9	-0.00690098037011921	0.381290287245065
361	9.025	-0.00690098037011921	0.381290287245065
362	9.05	-0.00561130838468671	0.381290287245065
363	9.075	-0.00561130838468671	0.380000615259632
364	9.1	-0.00561130838468671	0.380000615259632
365	9.125	-0.00561130838468671	0.380000615259632
366	9.15	-0.00561130838468671	0.380000615259632
367	9.175	-0.00561130838468671	0.3787109432742
368	9.2	-0.0043216363992542	0.377421271288767
369	9.225	-0.00561130838468671	0.3787109432742
370	9.25	-0.00561130838468671	0.377421271288767
371	9.275	-0.00561130838468671	0.377421271288767
372	9.3	-0.00561130838468671	0.377421271288767
373	9.325	-0.00561130838468671	0.376131599303335
374	9.35	-0.00561130838468671	0.376131599303335
375	9.375	-0.00561130838468671	0.376131599303335
376	9.4	-0.0043216363992542	0.374841927317902
377	9.425	-0.0043216363992542	0.374841927317902
378	9.45	-0.00561130838468671	0.374841927317902
379	9.475	-0.0043216363992542	0.374841927317902
380	9.5	-0.0043216363992542	0.37355225533247
381	9.525	-0.0043216363992542	0.37355225533247
382	9.55	-0.0043216363992542	0.37355225533247
383	9.575	-0.0043216363992542	0.372262583347037
384	9.6	-0.0043216363992542	0.372262583347037
385	9.625	-0.0030319644138217	0.372262583347037
386	9.65	-0.0030319644138217	0.372262583347037
387	9.675	-0.0030319644138217	0.370972911361605
388	9.7	-0.0030319644138217	0.370972911361605
389	9.725	-0.0043216363992542	0.370972911361605
390	9.75	-0.0030319644138217	0.369683239376172
391	9.775	-0.0030319644138217	0.369683239376172
392	9.8	-0.0030319644138217	0.369683239376172
393	9.825	-0.0030319644138217	0.369683239376172
394	9.85	-0.0030319644138217	0.369683239376172
395	9.875	-0.0030319644138217	0.36839356739074
396	9.9	-0.00174229242838919	0.36839356739074
397	9.925	-0.0030319644138217	0.36839356739074
398	9.95	-0.0030319644138217	0.36839356739074
399	9.975	-0.0030319644138217	0.367103895405307
400	10	-0.0030319644138217	0.367103895405307
401	10.025	-0.0030319644138217	0.367103895405307
402	10.05	-0.00174229242838919	0.367103895405307
403	10.075	-0.0030319644138217	0.367103895405307
404	10.1	-0.0030319644138217	0.365814223419875
405	10.125	-0.0030319644138217	0.365814223419875
406	10.15	-0.00174229242838919	0.364524551434442
407	10.175	-0.00174229242838919	0.364524551434442
408	10.2	-0.00174229242838919	0.364524551434442
409	10.225	-0.0030319644138217	0.364524551434442
410	10.25	-0.00174229242838919	0.36323487944901
411	10.275	-0.0030319644138217	0.36323487944901
412	10.3	-0.0030319644138217	0.36323487944901
413	10.325	-0.0030319644138217	0.361945207463577
414	10.35	-0.0030319644138217	0.361945207463577
415	10.375	-0.0030319644138217	0.361945207463577
416	10.4	-0.0030319644138217	0.361945207463577
417	10.425	-0.0030319644138217	0.361945207463577
418	10.45	-0.0030319644138217	0.360655535478145
