Number of measurement points: 1775
Sample Rate (Hz): 40
Low limit Ch0 (V): -10
Upper limit Ch0 (V): 10
Low limit Ch1 (V): -10
Upper limit Ch1 (V): 10

Index	Time[s]	Ch0[V]	Ch1[V]
0	0	-0.0817019555252045	-0.643998941173777
1	0.025	-0.0791226115543395	-0.643998941173777
2	0.05	-0.0791226115543395	-0.643998941173777
3	0.075	-0.0791226115543395	-0.642709269188344
4	0.1	-0.0791226115543395	-0.643998941173777
5	0.125	-0.080412283539772	-0.642709269188344
6	0.15	-0.080412283539772	-0.643998941173777
7	0.175	-0.080412283539772	-0.643998941173777
8	0.2	-0.0791226115543395	-0.643998941173777
9	0.225	-0.0817019555252045	-0.642709269188344
10	0.25	-0.0765432675834745	-0.642709269188344
11	0.275	-0.080412283539772	-0.643998941173777
12	0.3	-0.080412283539772	-0.643998941173777
13	0.325	-0.0791226115543395	-0.642709269188344
14	0.35	-0.077832939568907	-0.643998941173777
15	0.375	-0.0817019555252045	-0.643998941173777
16	0.4	-0.0817019555252045	-0.642709269188344
17	0.425	-0.0791226115543395	-0.643998941173777
18	0.45	-0.0791226115543395	-0.642709269188344
19	0.475	-0.0791226115543395	-0.642709269188344
20	0.5	-0.0817019555252045	-0.643998941173777
21	0.525	-0.080412283539772	-0.642709269188344
22	0.55	-0.077832939568907	-0.643998941173777
23	0.575	-0.080412283539772	-0.643998941173777
24	0.6	-0.0791226115543395	-0.643998941173777
25	0.625	-0.077832939568907	-0.643998941173777
26	0.65	-0.0791226115543395	-0.643998941173777
27	0.675	-0.0817019555252045	-0.643998941173777
28	0.7	-0.0791226115543395	-0.642709269188344
29	0.725	-0.080412283539772	-0.642709269188344
30	0.75	-0.077832939568907	-0.643998941173777
31	0.775	-0.082991627510637	-0.642709269188344
32	0.8	-0.0817019555252045	-0.642709269188344
33	0.825	-0.080412283539772	-0.643998941173777
34	0.85	-0.082991627510637	-0.642709269188344
35	0.875	-0.080412283539772	-0.642709269188344
36	0.9	-0.0791226115543395	-0.642709269188344
37	0.925	-0.0817019555252045	-0.643998941173777
38	0.95	-0.080412283539772	-0.643998941173777
39	0.975	-0.082991627510637	-0.643998941173777
40	1	-0.077832939568907	-0.643998941173777
41	1.025	-0.080412283539772	-0.642709269188344
42	1.05	-0.0817019555252045	-0.642709269188344
43	1.075	-0.080412283539772	-0.642709269188344
44	1.1	-0.080412283539772	-0.642709269188344
45	1.125	-0.080412283539772	-0.642709269188344
46	1.15	-0.077832939568907	-0.642709269188344
47	1.175	-0.0791226115543395	-0.643998941173777
48	1.2	-0.0817019555252045	-0.642709269188344
49	1.225	-0.080412283539772	-0.642709269188344
50	1.25	-0.0842812994960696	-0.643998941173777
51	1.275	-0.082991627510637	-0.643998941173777
52	1.3	-0.0791226115543395	-0.642709269188344
53	1.325	-0.0817019555252045	-0.642709269188344
54	1.35	-0.080412283539772	-0.642709269188344
55	1.375	-0.0791226115543395	-0.643998941173777
56	1.4	-0.0791226115543395	-0.642709269188344
57	1.425	-0.080412283539772	-0.642709269188344
58	1.45	-0.080412283539772	-0.642709269188344
59	1.475	-0.080412283539772	-0.642709269188344
60	1.5	-0.0817019555252045	-0.642709269188344
61	1.525	-0.0842812994960696	-0.642709269188344
62	1.55	-0.0842812994960696	-0.643998941173777
63	1.575	-0.0855709714815021	-0.643998941173777
64	1.6	-0.082991627510637	-0.643998941173777
65	1.625	-0.0855709714815021	-0.643998941173777
66	1.65	-0.0855709714815021	-0.642709269188344
67	1.675	-0.0868606434669346	-0.643998941173777
68	1.7	-0.0881503154523671	-0.642709269188344
69	1.725	-0.0933090033940971	-0.642709269188344
70	1.75	-0.0945986753795296	-0.642709269188344
71	1.775	-0.0958883473649621	-0.643998941173777
72	1.8	-0.0920193314086646	-0.642709269188344
73	1.825	-0.0920193314086646	-0.642709269188344
74	1.85	-0.0920193314086646	-0.643998941173777
75	1.875	-0.0920193314086646	-0.642709269188344
76	1.9	-0.0945986753795296	-0.642709269188344
77	1.925	-0.0920193314086646	-0.643998941173777
78	1.95	-0.0958883473649621	-0.642709269188344
79	1.975	-0.0958883473649621	-0.642709269188344
80	2	-0.0920193314086646	-0.643998941173777
81	2.025	-0.0933090033940971	-0.643998941173777
82	2.05	-0.0920193314086646	-0.643998941173777
83	2.075	-0.0920193314086646	-0.642709269188344
84	2.1	-0.0920193314086646	-0.643998941173777
85	2.125	-0.0920193314086646	-0.643998941173777
86	2.15	-0.0920193314086646	-0.643998941173777
87	2.175	-0.0933090033940971	-0.643998941173777
88	2.2	-0.0920193314086646	-0.642709269188344
89	2.225	-0.0907296594232321	-0.642709269188344
90	2.25	-0.0945986753795296	-0.643998941173777
91	2.275	-0.0933090033940971	-0.643998941173777
92	2.3	-0.0920193314086646	-0.643998941173777
93	2.325	-0.0933090033940971	-0.642709269188344
94	2.35	-0.0945986753795296	-0.642709269188344
95	2.375	-0.0920193314086646	-0.643998941173777
96	2.4	-0.0945986753795296	-0.643998941173777
97	2.425	-0.0933090033940971	-0.642709269188344
98	2.45	-0.0933090033940971	-0.643998941173777
99	2.475	-0.0945986753795296	-0.643998941173777
100	2.5	-0.0933090033940971	-0.643998941173777
101	2.525	-0.0945986753795296	-0.643998941173777
102	2.55	-0.0907296594232321	-0.643998941173777
103	2.575	-0.0933090033940971	-0.643998941173777
104	2.6	-0.0933090033940971	-0.643998941173777
105	2.625	-0.0945986753795296	-0.642709269188344
106	2.65	-0.0971780193503946	-0.643998941173777
107	2.675	-0.0971780193503946	-0.643998941173777
108	2.7	-0.0933090033940971	-0.643998941173777
109	2.725	-0.0971780193503946	-0.643998941173777
110	2.75	-0.0958883473649621	-0.643998941173777
111	2.775	-0.0958883473649621	-0.643998941173777
112	2.8	-0.0933090033940971	-0.642709269188344
113	2.825	-0.0945986753795296	-0.643998941173777
114	2.85	-0.0958883473649621	-0.643998941173777
115	2.875	-0.0945986753795296	-0.642709269188344
116	2.9	-0.0945986753795296	-0.643998941173777
117	2.925	-0.0945986753795296	-0.643998941173777
118	2.95	-0.0933090033940971	-0.643998941173777
119	2.975	-0.0945986753795296	-0.643998941173777
120	3	-0.0920193314086646	-0.642709269188344
121	3.025	-0.0945986753795296	-0.643998941173777
122	3.05	-0.0945986753795296	-0.643998941173777
123	3.075	-0.0945986753795296	-0.643998941173777
124	3.1	-0.0971780193503946	-0.643998941173777
125	3.125	-0.0945986753795296	-0.643998941173777
126	3.15	-0.0945986753795296	-0.643998941173777
127	3.175	-0.0920193314086646	-0.643998941173777
128	3.2	-0.0958883473649621	-0.643998941173777
129	3.225	-0.0920193314086646	-0.643998941173777
130	3.25	-0.0933090033940971	-0.643998941173777
131	3.275	-0.0933090033940971	-0.643998941173777
132	3.3	-0.0933090033940971	-0.642709269188344
133	3.325	-0.0945986753795296	-0.643998941173777
134	3.35	-0.0971780193503946	-0.643998941173777
135	3.375	-0.0920193314086646	-0.643998941173777
136	3.4	-0.0945986753795296	-0.643998941173777
137	3.425	-0.0945986753795296	-0.643998941173777
138	3.45	-0.0920193314086646	-0.643998941173777
139	3.475	-0.0920193314086646	-0.642709269188344
140	3.5	-0.0920193314086646	-0.643998941173777
141	3.525	-0.0933090033940971	-0.643998941173777
142	3.55	-0.0920193314086646	-0.643998941173777
143	3.575	-0.0933090033940971	-0.643998941173777
144	3.6	-0.0920193314086646	-0.643998941173777
145	3.625	-0.0945986753795296	-0.643998941173777
146	3.65	-0.0945986753795296	-0.643998941173777
147	3.675	-0.0920193314086646	-0.643998941173777
148	3.7	-0.0933090033940971	-0.643998941173777
149	3.725	-0.0958883473649621	-0.643998941173777
150	3.75	-0.0907296594232321	-0.643998941173777
151	3.775	-0.0920193314086646	-0.643998941173777
152	3.8	-0.0920193314086646	-0.643998941173777
153	3.825	-0.0920193314086646	-0.643998941173777
154	3.85	-0.0933090033940971	-0.643998941173777
155	3.875	-0.0945986753795296	-0.643998941173777
156	3.9	-0.0920193314086646	-0.643998941173777
157	3.925	-0.0958883473649621	-0.643998941173777
158	3.95	-0.0920193314086646	-0.643998941173777
159	3.975	-0.0945986753795296	-0.643998941173777
160	4	-0.0958883473649621	-0.643998941173777
161	4.025	-0.0945986753795296	-0.643998941173777
162	4.05	-0.0920193314086646	-0.643998941173777
163	4.075	-0.0945986753795296	-0.643998941173777
164	4.1	-0.0907296594232321	-0.643998941173777
165	4.125	-0.0907296594232321	-0.643998941173777
166	4.15	-0.0920193314086646	-0.643998941173777
167	4.175	-0.0907296594232321	-0.643998941173777
168	4.2	-0.0907296594232321	-0.643998941173777
169	4.225	-0.0881503154523671	-0.643998941173777
170	4.25	-0.0894399874377996	-0.643998941173777
171	4.275	-0.0920193314086646	-0.643998941173777
172	4.3	-0.0868606434669346	-0.643998941173777
173	4.325	-0.0868606434669346	-0.643998941173777
174	4.35	-0.082991627510637	-0.643998941173777
175	4.375	-0.0842812994960696	-0.642709269188344
176	4.4	-0.082991627510637	-0.642709269188344
177	4.425	-0.080412283539772	-0.642709269188344
178	4.45	-0.080412283539772	-0.641419597202912
179	4.475	-0.0791226115543395	-0.641419597202912
180	4.5	-0.082991627510637	-0.641419597202912
181	4.525	-0.0817019555252045	-0.640129925217479
182	4.55	-0.0842812994960696	-0.638840253232047
183	4.575	-0.080412283539772	-0.640129925217479
184	4.6	-0.0817019555252045	-0.638840253232047
185	4.625	-0.080412283539772	-0.637550581246614
186	4.65	-0.0791226115543395	-0.637550581246614
187	4.675	-0.082991627510637	-0.636260909261182
188	4.7	-0.0817019555252045	-0.637550581246614
189	4.725	-0.0791226115543395	-0.634971237275749
190	4.75	-0.0817019555252045	-0.636260909261182
191	4.775	-0.082991627510637	-0.634971237275749
192	4.8	-0.0842812994960696	-0.634971237275749
193	4.825	-0.0842812994960696	-0.633681565290317
194	4.85	-0.0842812994960696	-0.632391893304884
195	4.875	-0.0842812994960696	-0.632391893304884
196	4.9	-0.082991627510637	-0.632391893304884
197	4.925	-0.0855709714815021	-0.631102221319452
198	4.95	-0.0842812994960696	-0.629812549334019
199	4.975	-0.0842812994960696	-0.629812549334019
200	5	-0.0881503154523671	-0.628522877348587
201	5.025	-0.0881503154523671	-0.628522877348587
202	5.05	-0.0855709714815021	-0.627233205363154
203	5.075	-0.0868606434669346	-0.627233205363154
204	5.1	-0.0855709714815021	-0.625943533377722
205	5.125	-0.0881503154523671	-0.625943533377722
206	5.15	-0.0868606434669346	-0.624653861392289
207	5.175	-0.0894399874377996	-0.624653861392289
208	5.2	-0.0881503154523671	-0.623364189406857
209	5.225	-0.0881503154523671	-0.620784845435992
210	5.25	-0.0868606434669346	-0.620784845435992
211	5.275	-0.0920193314086646	-0.620784845435992
212	5.3	-0.0894399874377996	-0.619495173450559
213	5.325	-0.0920193314086646	-0.618205501465127
214	5.35	-0.0894399874377996	-0.618205501465127
215	5.375	-0.0958883473649621	-0.616915829479694
216	5.4	-0.0958883473649621	-0.614336485508829
217	5.425	-0.0984676913358271	-0.614336485508829
218	5.45	-0.0958883473649621	-0.613046813523397
219	5.475	-0.0984676913358271	-0.613046813523397
220	5.5	-0.0984676913358271	-0.611757141537964
221	5.525	-0.101047035306692	-0.610467469552532
222	5.55	-0.0997573633212596	-0.609177797567099
223	5.575	-0.107495395233855	-0.607888125581667
224	5.6	-0.107495395233855	-0.607888125581667
225	5.625	-0.108785067219287	-0.605308781610802
226	5.65	-0.11007473920472	-0.605308781610802
227	5.675	-0.112654083175585	-0.604019109625369
228	5.7	-0.111364411190152	-0.604019109625369
229	5.725	-0.116523099131882	-0.602729437639937
230	5.75	-0.116523099131882	-0.601439765654504
231	5.775	-0.116523099131882	-0.600150093669072
232	5.8	-0.116523099131882	-0.600150093669072
233	5.825	-0.119102443102747	-0.598860421683639
234	5.85	-0.116523099131882	-0.597570749698207
235	5.875	-0.119102443102747	-0.596281077712774
236	5.9	-0.119102443102747	-0.596281077712774
237	5.925	-0.119102443102747	-0.593701733741909
238	5.95	-0.12039211508818	-0.593701733741909
239	5.975	-0.119102443102747	-0.593701733741909
240	6	-0.119102443102747	-0.592412061756477
241	6.025	-0.119102443102747	-0.591122389771044
242	6.05	-0.12039211508818	-0.589832717785612
243	6.075	-0.117812771117315	-0.588543045800179
244	6.1	-0.11523342714645	-0.587253373814747
245	6.125	-0.116523099131882	-0.587253373814747
246	6.15	-0.119102443102747	-0.585963701829314
247	6.175	-0.117812771117315	-0.584674029843882
248	6.2	-0.116523099131882	-0.583384357858449
249	6.225	-0.117812771117315	-0.583384357858449
250	6.25	-0.116523099131882	-0.580805013887584
251	6.275	-0.12039211508818	-0.579515341902152
252	6.3	-0.117812771117315	-0.579515341902152
253	6.325	-0.119102443102747	-0.578225669916719
254	6.35	-0.119102443102747	-0.575646325945854
255	6.375	-0.124261131044477	-0.575646325945854
256	6.4	-0.12555080302991	-0.574356653960422
257	6.425	-0.128130147000775	-0.574356653960422
258	6.45	-0.12555080302991	-0.573066981974989
259	6.475	-0.129419818986207	-0.571777309989557
260	6.5	-0.126840475015342	-0.570487638004124
261	6.525	-0.13070949097164	-0.569197966018692
262	6.55	-0.124261131044477	-0.567908294033259
263	6.575	-0.122971459059045	-0.567908294033259
264	6.6	-0.121681787073612	-0.566618622047827
265	6.625	-0.122971459059045	-0.565328950062394
266	6.65	-0.119102443102747	-0.564039278076962
267	6.675	-0.116523099131882	-0.562749606091529
268	6.7	-0.112654083175585	-0.562749606091529
269	6.725	-0.113943755161017	-0.561459934106097
270	6.75	-0.111364411190152	-0.560170262120664
271	6.775	-0.111364411190152	-0.558880590135232
272	6.8	-0.10491605126299	-0.558880590135232
273	6.825	-0.106205723248422	-0.556301246164367
274	6.85	-0.106205723248422	-0.556301246164367
275	6.875	-0.106205723248422	-0.555011574178934
276	6.9	-0.106205723248422	-0.553721902193502
277	6.925	-0.10491605126299	-0.553721902193502
278	6.95	-0.103626379277557	-0.552432230208069
279	6.975	-0.103626379277557	-0.551142558222637
280	7	-0.10491605126299	-0.551142558222637
281	7.025	-0.106205723248422	-0.549852886237204
282	7.05	-0.103626379277557	-0.548563214251772
283	7.075	-0.106205723248422	-0.548563214251772
284	7.1	-0.10491605126299	-0.547273542266339
285	7.125	-0.108785067219287	-0.545983870280907
286	7.15	-0.108785067219287	-0.545983870280907
287	7.175	-0.11007473920472	-0.544694198295474
288	7.2	-0.111364411190152	-0.544694198295474
289	7.225	-0.112654083175585	-0.543404526310042
290	7.25	-0.11523342714645	-0.542114854324609
291	7.275	-0.12039211508818	-0.540825182339177
292	7.3	-0.121681787073612	-0.540825182339177
293	7.325	-0.121681787073612	-0.539535510353744
294	7.35	-0.124261131044477	-0.538245838368312
295	7.375	-0.13070949097164	-0.538245838368312
296	7.4	-0.131999162957072	-0.536956166382879
297	7.425	-0.133288834942505	-0.536956166382879
298	7.45	-0.134578506927937	-0.535666494397447
299	7.475	-0.13586817891337	-0.535666494397447
300	7.5	-0.1410268668551	-0.534376822412014
301	7.525	-0.1410268668551	-0.533087150426582
302	7.55	-0.138447522884235	-0.531797478441149
303	7.575	-0.144895882811397	-0.530507806455716
304	7.6	-0.142316538840532	-0.530507806455716
305	7.625	-0.142316538840532	-0.530507806455716
306	7.65	-0.143606210825965	-0.529218134470284
307	7.675	-0.14618555479683	-0.527928462484851
308	7.7	-0.147475226782262	-0.527928462484851
309	7.725	-0.147475226782262	-0.527928462484851
310	7.75	-0.144895882811397	-0.526638790499419
311	7.775	-0.147475226782262	-0.525349118513986
312	7.8	-0.148764898767695	-0.525349118513986
313	7.825	-0.150054570753127	-0.524059446528554
314	7.85	-0.14618555479683	-0.524059446528554
315	7.875	-0.147475226782262	-0.524059446528554
316	7.9	-0.150054570753127	-0.522769774543121
317	7.925	-0.14618555479683	-0.522769774543121
318	7.95	-0.142316538840532	-0.521480102557689
319	7.975	-0.144895882811397	-0.520190430572256
320	8	-0.1410268668551	-0.520190430572256
321	8.025	-0.144895882811397	-0.520190430572256
322	8.05	-0.1410268668551	-0.518900758586824
323	8.075	-0.138447522884235	-0.517611086601391
324	8.1	-0.1410268668551	-0.517611086601391
325	8.125	-0.1410268668551	-0.517611086601391
326	8.15	-0.143606210825965	-0.517611086601391
327	8.175	-0.139737194869667	-0.516321414615959
328	8.2	-0.13586817891337	-0.516321414615959
329	8.225	-0.1410268668551	-0.515031742630526
330	8.25	-0.142316538840532	-0.515031742630526
331	8.275	-0.142316538840532	-0.515031742630526
332	8.3	-0.139737194869667	-0.513742070645094
333	8.325	-0.139737194869667	-0.513742070645094
334	8.35	-0.1410268668551	-0.512452398659661
335	8.375	-0.144895882811397	-0.511162726674229
336	8.4	-0.1410268668551	-0.511162726674229
337	8.425	-0.1410268668551	-0.511162726674229
338	8.45	-0.1410268668551	-0.509873054688796
339	8.475	-0.142316538840532	-0.509873054688796
340	8.5	-0.139737194869667	-0.508583382703364
341	8.525	-0.142316538840532	-0.508583382703364
342	8.55	-0.143606210825965	-0.507293710717931
343	8.575	-0.144895882811397	-0.507293710717931
344	8.6	-0.148764898767695	-0.507293710717931
345	8.625	-0.15134424273856	-0.506004038732499
346	8.65	-0.147475226782262	-0.504714366747066
347	8.675	-0.153923586709425	-0.504714366747066
348	8.7	-0.152633914723992	-0.503424694761634
349	8.725	-0.152633914723992	-0.503424694761634
350	8.75	-0.155213258694857	-0.502135022776201
351	8.775	-0.153923586709425	-0.502135022776201
352	8.8	-0.157792602665722	-0.500845350790769
353	8.825	-0.160371946636587	-0.500845350790769
354	8.85	-0.157792602665722	-0.499555678805336
355	8.875	-0.160371946636587	-0.499555678805336
356	8.9	-0.160371946636587	-0.498266006819904
357	8.925	-0.165530634578317	-0.498266006819904
358	8.95	-0.165530634578317	-0.496976334834471
359	8.975	-0.16166161862202	-0.496976334834471
360	9	-0.160371946636587	-0.496976334834471
361	9.025	-0.162951290607452	-0.495686662849039
362	9.05	-0.164240962592885	-0.494396990863606
363	9.075	-0.164240962592885	-0.494396990863606
364	9.1	-0.164240962592885	-0.494396990863606
365	9.125	-0.165530634578317	-0.493107318878174
366	9.15	-0.168109978549182	-0.493107318878174
367	9.175	-0.170689322520047	-0.491817646892741
368	9.2	-0.17197899450548	-0.491817646892741
369	9.225	-0.170689322520047	-0.491817646892741
370	9.25	-0.17197899450548	-0.490527974907309
371	9.275	-0.175848010461777	-0.490527974907309
372	9.3	-0.173268666490912	-0.489238302921876
373	9.325	-0.173268666490912	-0.489238302921876
374	9.35	-0.173268666490912	-0.487948630936444
375	9.375	-0.175848010461777	-0.487948630936444
376	9.4	-0.175848010461777	-0.486658958951011
377	9.425	-0.17713768244721	-0.486658958951011
378	9.45	-0.174558338476345	-0.486658958951011
379	9.475	-0.175848010461777	-0.485369286965579
380	9.5	-0.175848010461777	-0.484079614980146
381	9.525	-0.175848010461777	-0.484079614980146
382	9.55	-0.174558338476345	-0.482789942994714
383	9.575	-0.17713768244721	-0.482789942994714
384	9.6	-0.174558338476345	-0.482789942994714
385	9.625	-0.17713768244721	-0.481500271009281
386	9.65	-0.170689322520047	-0.480210599023849
387	9.675	-0.174558338476345	-0.480210599023849
388	9.7	-0.174558338476345	-0.480210599023849
389	9.725	-0.17197899450548	-0.478920927038416
390	9.75	-0.17197899450548	-0.478920927038416
391	9.775	-0.170689322520047	-0.477631255052984
392	9.8	-0.17197899450548	-0.477631255052984
393	9.825	-0.175848010461777	-0.476341583067551
394	9.85	-0.169399650534615	-0.475051911082119
395	9.875	-0.17197899450548	-0.475051911082119
396	9.9	-0.170689322520047	-0.475051911082119
397	9.925	-0.173268666490912	-0.473762239096686
398	9.95	-0.173268666490912	-0.472472567111254
399	9.975	-0.179717026418075	-0.472472567111254
400	10	-0.179717026418075	-0.471182895125821
401	10.025	-0.178427354432642	-0.471182895125821
402	10.05	-0.175848010461777	-0.469893223140389
403	10.075	-0.184875714359805	-0.469893223140389
404	10.1	-0.184875714359805	-0.468603551154956
405	10.125	-0.181006698403507	-0.467313879169524
406	10.15	-0.179717026418075	-0.467313879169524
407	10.175	-0.181006698403507	-0.466024207184091
408	10.2	-0.186165386345237	-0.466024207184091
409	10.225	-0.183586042374372	-0.464734535198659
410	10.25	-0.181006698403507	-0.464734535198659
411	10.275	-0.18745505833067	-0.463444863213226
412	10.3	-0.184875714359805	-0.462155191227794
413	10.325	-0.18229637038894	-0.462155191227794
414	10.35	-0.18229637038894	-0.462155191227794
415	10.375	-0.18229637038894	-0.462155191227794
416	10.4	-0.184875714359805	-0.459575847256929
417	10.425	-0.183586042374372	-0.459575847256929
418	10.45	-0.183586042374372	-0.458286175271496
