Number of measurement points: 2687
Sample Rate (Hz): 40
Low limit Ch0 (V): -10
Upper limit Ch0 (V): 10
Low limit Ch1 (V): -10
Upper limit Ch1 (V): 10

Index	Time[s]	Ch0[V]	Ch1[V]
0	0	-0.00819065235555172	-0.521480102557689
1	0.025	-0.00690098037011921	-0.521480102557689
2	0.05	-0.00690098037011921	-0.521480102557689
3	0.075	-0.00690098037011921	-0.521480102557689
4	0.1	-0.00561130838468671	-0.521480102557689
5	0.125	-0.00690098037011921	-0.521480102557689
6	0.15	-0.00690098037011921	-0.521480102557689
7	0.175	-0.00690098037011921	-0.521480102557689
8	0.2	-0.00561130838468671	-0.521480102557689
9	0.225	-0.00690098037011921	-0.521480102557689
10	0.25	-0.00690098037011921	-0.521480102557689
11	0.275	-0.00690098037011921	-0.521480102557689
12	0.3	-0.00690098037011921	-0.521480102557689
13	0.325	-0.00561130838468671	-0.521480102557689
14	0.35	-0.00561130838468671	-0.521480102557689
15	0.375	-0.00690098037011921	-0.521480102557689
16	0.4	-0.00690098037011921	-0.521480102557689
17	0.425	-0.00690098037011921	-0.521480102557689
18	0.45	-0.00690098037011921	-0.521480102557689
19	0.475	-0.00690098037011921	-0.521480102557689
20	0.5	-0.00690098037011921	-0.521480102557689
21	0.525	-0.00561130838468671	-0.521480102557689
22	0.55	-0.00690098037011921	-0.521480102557689
23	0.575	-0.00690098037011921	-0.521480102557689
24	0.6	-0.00690098037011921	-0.521480102557689
25	0.625	-0.00690098037011921	-0.521480102557689
26	0.65	-0.00690098037011921	-0.521480102557689
27	0.675	-0.00690098037011921	-0.521480102557689
28	0.7	-0.00690098037011921	-0.521480102557689
29	0.725	-0.00690098037011921	-0.521480102557689
30	0.75	-0.00690098037011921	-0.521480102557689
31	0.775	-0.00690098037011921	-0.521480102557689
32	0.8	-0.00690098037011921	-0.521480102557689
33	0.825	-0.00690098037011921	-0.521480102557689
34	0.85	-0.00690098037011921	-0.521480102557689
35	0.875	-0.00690098037011921	-0.521480102557689
36	0.9	-0.00690098037011921	-0.521480102557689
37	0.925	-0.00690098037011921	-0.521480102557689
38	0.95	-0.00690098037011921	-0.521480102557689
39	0.975	-0.00690098037011921	-0.521480102557689
40	1	-0.00690098037011921	-0.521480102557689
41	1.025	-0.00561130838468671	-0.521480102557689
42	1.05	-0.00690098037011921	-0.521480102557689
43	1.075	-0.00690098037011921	-0.521480102557689
44	1.1	-0.00561130838468671	-0.521480102557689
45	1.125	-0.00690098037011921	-0.521480102557689
46	1.15	-0.00690098037011921	-0.521480102557689
47	1.175	-0.00690098037011921	-0.521480102557689
48	1.2	-0.00690098037011921	-0.521480102557689
49	1.225	-0.00561130838468671	-0.521480102557689
50	1.25	-0.00690098037011921	-0.521480102557689
51	1.275	-0.00690098037011921	-0.521480102557689
52	1.3	-0.00690098037011921	-0.521480102557689
53	1.325	-0.00561130838468671	-0.521480102557689
54	1.35	-0.00690098037011921	-0.521480102557689
55	1.375	-0.00690098037011921	-0.521480102557689
56	1.4	-0.00690098037011921	-0.522769774543121
57	1.425	-0.00561130838468671	-0.521480102557689
58	1.45	-0.00690098037011921	-0.521480102557689
59	1.475	-0.00690098037011921	-0.521480102557689
60	1.5	-0.00690098037011921	-0.521480102557689
61	1.525	-0.00690098037011921	-0.521480102557689
62	1.55	-0.00690098037011921	-0.521480102557689
63	1.575	-0.00690098037011921	-0.521480102557689
64	1.6	-0.00690098037011921	-0.520190430572256
65	1.625	-0.00690098037011921	-0.521480102557689
66	1.65	-0.00690098037011921	-0.521480102557689
67	1.675	-0.00819065235555172	-0.521480102557689
68	1.7	-0.00690098037011921	-0.521480102557689
69	1.725	-0.00690098037011921	-0.521480102557689
70	1.75	-0.00690098037011921	-0.521480102557689
71	1.775	-0.00690098037011921	-0.521480102557689
72	1.8	-0.00690098037011921	-0.521480102557689
73	1.825	-0.00690098037011921	-0.521480102557689
74	1.85	-0.00690098037011921	-0.521480102557689
75	1.875	-0.00690098037011921	-0.521480102557689
76	1.9	-0.00690098037011921	-0.521480102557689
77	1.925	-0.00561130838468671	-0.521480102557689
78	1.95	-0.00690098037011921	-0.521480102557689
79	1.975	-0.00819065235555172	-0.521480102557689
80	2	-0.00690098037011921	-0.521480102557689
81	2.025	-0.00690098037011921	-0.521480102557689
82	2.05	-0.00690098037011921	-0.521480102557689
83	2.075	-0.00819065235555172	-0.521480102557689
84	2.1	-0.00690098037011921	-0.521480102557689
85	2.125	-0.00690098037011921	-0.521480102557689
86	2.15	-0.00690098037011921	-0.521480102557689
87	2.175	-0.00690098037011921	-0.521480102557689
88	2.2	-0.00690098037011921	-0.521480102557689
89	2.225	-0.00561130838468671	-0.521480102557689
90	2.25	-0.00690098037011921	-0.521480102557689
91	2.275	-0.00690098037011921	-0.521480102557689
92	2.3	-0.00690098037011921	-0.521480102557689
93	2.325	-0.00690098037011921	-0.520190430572256
94	2.35	-0.00690098037011921	-0.521480102557689
95	2.375	-0.00690098037011921	-0.521480102557689
96	2.4	-0.00561130838468671	-0.521480102557689
97	2.425	-0.00690098037011921	-0.521480102557689
98	2.45	-0.00690098037011921	-0.521480102557689
99	2.475	-0.00690098037011921	-0.521480102557689
100	2.5	-0.00690098037011921	-0.521480102557689
101	2.525	-0.00690098037011921	-0.521480102557689
102	2.55	-0.00690098037011921	-0.521480102557689
103	2.575	-0.00690098037011921	-0.521480102557689
104	2.6	-0.00690098037011921	-0.521480102557689
105	2.625	-0.00690098037011921	-0.522769774543121
106	2.65	-0.00690098037011921	-0.521480102557689
107	2.675	-0.00819065235555172	-0.521480102557689
108	2.7	-0.00690098037011921	-0.521480102557689
109	2.725	-0.00561130838468671	-0.521480102557689
110	2.75	-0.00690098037011921	-0.521480102557689
111	2.775	-0.00690098037011921	-0.521480102557689
112	2.8	-0.00690098037011921	-0.521480102557689
113	2.825	-0.00690098037011921	-0.521480102557689
114	2.85	-0.00690098037011921	-0.521480102557689
115	2.875	-0.00690098037011921	-0.521480102557689
116	2.9	-0.00690098037011921	-0.521480102557689
117	2.925	-0.00690098037011921	-0.521480102557689
118	2.95	-0.00690098037011921	-0.521480102557689
119	2.975	-0.00690098037011921	-0.521480102557689
120	3	-0.00819065235555172	-0.521480102557689
121	3.025	-0.00690098037011921	-0.521480102557689
122	3.05	-0.00690098037011921	-0.521480102557689
123	3.075	-0.00690098037011921	-0.521480102557689
124	3.1	-0.00690098037011921	-0.521480102557689
125	3.125	-0.00690098037011921	-0.521480102557689
126	3.15	-0.00690098037011921	-0.521480102557689
127	3.175	-0.00690098037011921	-0.521480102557689
128	3.2	-0.00690098037011921	-0.521480102557689
129	3.225	-0.00690098037011921	-0.521480102557689
130	3.25	-0.00690098037011921	-0.521480102557689
131	3.275	-0.00690098037011921	-0.521480102557689
132	3.3	-0.00690098037011921	-0.521480102557689
133	3.325	-0.00819065235555172	-0.521480102557689
134	3.35	-0.00690098037011921	-0.521480102557689
135	3.375	-0.00690098037011921	-0.521480102557689
136	3.4	-0.00690098037011921	-0.521480102557689
137	3.425	-0.00690098037011921	-0.521480102557689
138	3.45	-0.00690098037011921	-0.521480102557689
139	3.475	-0.00819065235555172	-0.521480102557689
140	3.5	-0.00690098037011921	-0.521480102557689
141	3.525	-0.00690098037011921	-0.521480102557689
142	3.55	-0.00690098037011921	-0.521480102557689
143	3.575	-0.00690098037011921	-0.520190430572256
144	3.6	-0.00561130838468671	-0.521480102557689
145	3.625	-0.00690098037011921	-0.521480102557689
146	3.65	-0.00819065235555172	-0.521480102557689
147	3.675	-0.00690098037011921	-0.521480102557689
148	3.7	-0.00561130838468671	-0.521480102557689
149	3.725	-0.00690098037011921	-0.521480102557689
150	3.75	-0.00690098037011921	-0.521480102557689
151	3.775	-0.00690098037011921	-0.521480102557689
152	3.8	-0.00561130838468671	-0.521480102557689
153	3.825	-0.00561130838468671	-0.520190430572256
154	3.85	-0.00819065235555172	-0.521480102557689
155	3.875	-0.00690098037011921	-0.520190430572256
156	3.9	-0.00561130838468671	-0.520190430572256
157	3.925	-0.00561130838468671	-0.520190430572256
158	3.95	-0.00690098037011921	-0.521480102557689
159	3.975	-0.00819065235555172	-0.521480102557689
160	4	-0.00690098037011921	-0.521480102557689
161	4.025	-0.00690098037011921	-0.521480102557689
162	4.05	-0.00690098037011921	-0.521480102557689
163	4.075	-0.00690098037011921	-0.521480102557689
164	4.1	-0.00690098037011921	-0.520190430572256
165	4.125	-0.00690098037011921	-0.521480102557689
166	4.15	-0.00690098037011921	-0.521480102557689
167	4.175	-0.00690098037011921	-0.521480102557689
168	4.2	-0.00690098037011921	-0.521480102557689
169	4.225	-0.00690098037011921	-0.521480102557689
170	4.25	-0.00819065235555172	-0.521480102557689
171	4.275	-0.00819065235555172	-0.521480102557689
172	4.3	-0.00819065235555172	-0.521480102557689
173	4.325	-0.00690098037011921	-0.520190430572256
174	4.35	-0.00690098037011921	-0.520190430572256
175	4.375	-0.00690098037011921	-0.521480102557689
176	4.4	-0.00690098037011921	-0.521480102557689
177	4.425	-0.00690098037011921	-0.521480102557689
178	4.45	-0.00690098037011921	-0.521480102557689
179	4.475	-0.00690098037011921	-0.521480102557689
180	4.5	-0.00690098037011921	-0.520190430572256
181	4.525	-0.00690098037011921	-0.521480102557689
182	4.55	-0.00690098037011921	-0.521480102557689
183	4.575	-0.00819065235555172	-0.521480102557689
184	4.6	-0.00690098037011921	-0.521480102557689
185	4.625	-0.00690098037011921	-0.520190430572256
186	4.65	-0.00819065235555172	-0.520190430572256
187	4.675	-0.00690098037011921	-0.521480102557689
188	4.7	-0.00690098037011921	-0.520190430572256
189	4.725	-0.00690098037011921	-0.520190430572256
190	4.75	-0.00819065235555172	-0.520190430572256
191	4.775	-0.00819065235555172	-0.518900758586824
192	4.8	-0.00819065235555172	-0.520190430572256
193	4.825	-0.00690098037011921	-0.518900758586824
194	4.85	-0.00819065235555172	-0.520190430572256
195	4.875	-0.00819065235555172	-0.518900758586824
196	4.9	-0.00690098037011921	-0.518900758586824
197	4.925	-0.00948032434098423	-0.518900758586824
198	4.95	-0.00948032434098423	-0.518900758586824
199	4.975	-0.00948032434098423	-0.517611086601391
200	5	-0.00948032434098423	-0.518900758586824
201	5.025	-0.0107699963264167	-0.517611086601391
202	5.05	-0.0107699963264167	-0.517611086601391
203	5.075	-0.0120596683118492	-0.517611086601391
204	5.1	-0.0107699963264167	-0.517611086601391
205	5.125	-0.0107699963264167	-0.516321414615959
206	5.15	-0.0120596683118492	-0.516321414615959
207	5.175	-0.0120596683118492	-0.516321414615959
208	5.2	-0.0120596683118492	-0.516321414615959
209	5.225	-0.0120596683118492	-0.516321414615959
210	5.25	-0.0120596683118492	-0.515031742630526
211	5.275	-0.0120596683118492	-0.515031742630526
212	5.3	-0.0120596683118492	-0.513742070645094
213	5.325	-0.0120596683118492	-0.515031742630526
214	5.35	-0.0133493402972817	-0.515031742630526
215	5.375	-0.0146390122827142	-0.513742070645094
216	5.4	-0.0133493402972817	-0.513742070645094
217	5.425	-0.0120596683118492	-0.513742070645094
218	5.45	-0.0146390122827142	-0.513742070645094
219	5.475	-0.0133493402972817	-0.512452398659661
220	5.5	-0.0133493402972817	-0.513742070645094
221	5.525	-0.0120596683118492	-0.513742070645094
222	5.55	-0.0133493402972817	-0.512452398659661
223	5.575	-0.0133493402972817	-0.512452398659661
224	5.6	-0.0133493402972817	-0.512452398659661
225	5.625	-0.0120596683118492	-0.512452398659661
226	5.65	-0.0133493402972817	-0.512452398659661
227	5.675	-0.0133493402972817	-0.511162726674229
228	5.7	-0.0133493402972817	-0.511162726674229
229	5.725	-0.0133493402972817	-0.512452398659661
230	5.75	-0.0133493402972817	-0.512452398659661
231	5.775	-0.0133493402972817	-0.512452398659661
232	5.8	-0.0133493402972817	-0.512452398659661
233	5.825	-0.0133493402972817	-0.511162726674229
234	5.85	-0.0120596683118492	-0.511162726674229
235	5.875	-0.0133493402972817	-0.511162726674229
236	5.9	-0.0120596683118492	-0.511162726674229
237	5.925	-0.0120596683118492	-0.511162726674229
238	5.95	-0.0133493402972817	-0.511162726674229
239	5.975	-0.0133493402972817	-0.511162726674229
240	6	-0.0133493402972817	-0.511162726674229
241	6.025	-0.0133493402972817	-0.511162726674229
242	6.05	-0.0146390122827142	-0.511162726674229
243	6.075	-0.0133493402972817	-0.511162726674229
244	6.1	-0.0146390122827142	-0.511162726674229
245	6.125	-0.0146390122827142	-0.511162726674229
246	6.15	-0.0133493402972817	-0.511162726674229
247	6.175	-0.0159286842681468	-0.509873054688796
248	6.2	-0.0146390122827142	-0.509873054688796
249	6.225	-0.0146390122827142	-0.509873054688796
250	6.25	-0.0146390122827142	-0.509873054688796
251	6.275	-0.0159286842681468	-0.509873054688796
252	6.3	-0.0146390122827142	-0.508583382703364
253	6.325	-0.0159286842681468	-0.509873054688796
254	6.35	-0.0146390122827142	-0.508583382703364
255	6.375	-0.0159286842681468	-0.508583382703364
256	6.4	-0.0159286842681468	-0.508583382703364
257	6.425	-0.0146390122827142	-0.508583382703364
258	6.45	-0.0159286842681468	-0.508583382703364
259	6.475	-0.0146390122827142	-0.508583382703364
260	6.5	-0.0159286842681468	-0.507293710717931
261	6.525	-0.0159286842681468	-0.507293710717931
262	6.55	-0.0159286842681468	-0.507293710717931
263	6.575	-0.0159286842681468	-0.507293710717931
264	6.6	-0.0159286842681468	-0.507293710717931
265	6.625	-0.0159286842681468	-0.507293710717931
266	6.65	-0.0159286842681468	-0.507293710717931
267	6.675	-0.0172183562535793	-0.506004038732499
268	6.7	-0.0159286842681468	-0.506004038732499
269	6.725	-0.0172183562535793	-0.506004038732499
270	6.75	-0.0172183562535793	-0.506004038732499
271	6.775	-0.0172183562535793	-0.506004038732499
272	6.8	-0.0172183562535793	-0.506004038732499
273	6.825	-0.0172183562535793	-0.506004038732499
274	6.85	-0.0159286842681468	-0.506004038732499
275	6.875	-0.0159286842681468	-0.506004038732499
276	6.9	-0.0172183562535793	-0.506004038732499
277	6.925	-0.0172183562535793	-0.506004038732499
278	6.95	-0.0159286842681468	-0.506004038732499
279	6.975	-0.0159286842681468	-0.504714366747066
280	7	-0.0159286842681468	-0.504714366747066
281	7.025	-0.0159286842681468	-0.506004038732499
282	7.05	-0.0172183562535793	-0.504714366747066
283	7.075	-0.0159286842681468	-0.504714366747066
284	7.1	-0.0159286842681468	-0.503424694761634
285	7.125	-0.0159286842681468	-0.504714366747066
286	7.15	-0.0172183562535793	-0.504714366747066
287	7.175	-0.0159286842681468	-0.503424694761634
288	7.2	-0.0159286842681468	-0.503424694761634
289	7.225	-0.0159286842681468	-0.503424694761634
290	7.25	-0.0159286842681468	-0.503424694761634
291	7.275	-0.0159286842681468	-0.503424694761634
292	7.3	-0.0159286842681468	-0.503424694761634
293	7.325	-0.0159286842681468	-0.502135022776201
294	7.35	-0.0146390122827142	-0.502135022776201
295	7.375	-0.0159286842681468	-0.502135022776201
296	7.4	-0.0146390122827142	-0.502135022776201
297	7.425	-0.0146390122827142	-0.500845350790769
298	7.45	-0.0159286842681468	-0.500845350790769
299	7.475	-0.0159286842681468	-0.502135022776201
300	7.5	-0.0159286842681468	-0.500845350790769
301	7.525	-0.0146390122827142	-0.500845350790769
302	7.55	-0.0146390122827142	-0.500845350790769
303	7.575	-0.0159286842681468	-0.500845350790769
304	7.6	-0.0146390122827142	-0.499555678805336
305	7.625	-0.0159286842681468	-0.499555678805336
306	7.65	-0.0146390122827142	-0.499555678805336
307	7.675	-0.0146390122827142	-0.499555678805336
308	7.7	-0.0146390122827142	-0.499555678805336
309	7.725	-0.0133493402972817	-0.499555678805336
310	7.75	-0.0133493402972817	-0.499555678805336
311	7.775	-0.0133493402972817	-0.498266006819904
312	7.8	-0.0133493402972817	-0.498266006819904
313	7.825	-0.0146390122827142	-0.498266006819904
314	7.85	-0.0133493402972817	-0.498266006819904
315	7.875	-0.0146390122827142	-0.498266006819904
316	7.9	-0.0133493402972817	-0.498266006819904
317	7.925	-0.0133493402972817	-0.498266006819904
318	7.95	-0.0133493402972817	-0.498266006819904
319	7.975	-0.0133493402972817	-0.496976334834471
320	8	-0.0133493402972817	-0.496976334834471
321	8.025	-0.0133493402972817	-0.496976334834471
322	8.05	-0.0133493402972817	-0.498266006819904
323	8.075	-0.0120596683118492	-0.496976334834471
324	8.1	-0.0133493402972817	-0.496976334834471
325	8.125	-0.0133493402972817	-0.496976334834471
326	8.15	-0.0133493402972817	-0.496976334834471
327	8.175	-0.0133493402972817	-0.496976334834471
328	8.2	-0.0133493402972817	-0.496976334834471
329	8.225	-0.0133493402972817	-0.496976334834471
330	8.25	-0.0133493402972817	-0.496976334834471
331	8.275	-0.0133493402972817	-0.495686662849039
332	8.3	-0.0133493402972817	-0.496976334834471
333	8.325	-0.0120596683118492	-0.496976334834471
334	8.35	-0.0133493402972817	-0.495686662849039
335	8.375	-0.0133493402972817	-0.496976334834471
336	8.4	-0.0120596683118492	-0.495686662849039
337	8.425	-0.0120596683118492	-0.495686662849039
338	8.45	-0.0120596683118492	-0.495686662849039
339	8.475	-0.0133493402972817	-0.496976334834471
340	8.5	-0.0120596683118492	-0.495686662849039
341	8.525	-0.0107699963264167	-0.495686662849039
342	8.55	-0.0107699963264167	-0.495686662849039
343	8.575	-0.0107699963264167	-0.495686662849039
344	8.6	-0.0107699963264167	-0.495686662849039
345	8.625	-0.00948032434098423	-0.495686662849039
346	8.65	-0.00948032434098423	-0.495686662849039
347	8.675	-0.00948032434098423	-0.494396990863606
348	8.7	-0.00819065235555172	-0.494396990863606
349	8.725	-0.00819065235555172	-0.494396990863606
350	8.75	-0.00819065235555172	-0.494396990863606
351	8.775	-0.00819065235555172	-0.494396990863606
352	8.8	-0.00948032434098423	-0.493107318878174
353	8.825	-0.00819065235555172	-0.493107318878174
354	8.85	-0.00819065235555172	-0.493107318878174
355	8.875	-0.00690098037011921	-0.493107318878174
356	8.9	-0.00690098037011921	-0.493107318878174
357	8.925	-0.00690098037011921	-0.491817646892741
358	8.95	-0.00819065235555172	-0.491817646892741
359	8.975	-0.00819065235555172	-0.493107318878174
360	9	-0.00690098037011921	-0.491817646892741
361	9.025	-0.00819065235555172	-0.491817646892741
362	9.05	-0.00819065235555172	-0.491817646892741
363	9.075	-0.00819065235555172	-0.491817646892741
364	9.1	-0.00690098037011921	-0.490527974907309
365	9.125	-0.00690098037011921	-0.491817646892741
366	9.15	-0.00819065235555172	-0.490527974907309
367	9.175	-0.00690098037011921	-0.491817646892741
368	9.2	-0.00690098037011921	-0.490527974907309
369	9.225	-0.00690098037011921	-0.490527974907309
370	9.25	-0.00819065235555172	-0.490527974907309
371	9.275	-0.00819065235555172	-0.490527974907309
372	9.3	-0.00690098037011921	-0.490527974907309
373	9.325	-0.00690098037011921	-0.490527974907309
374	9.35	-0.00690098037011921	-0.490527974907309
375	9.375	-0.00561130838468671	-0.489238302921876
376	9.4	-0.00561130838468671	-0.489238302921876
377	9.425	-0.00561130838468671	-0.489238302921876
378	9.45	-0.0043216363992542	-0.489238302921876
379	9.475	-0.00561130838468671	-0.489238302921876
380	9.5	-0.00561130838468671	-0.489238302921876
381	9.525	-0.00561130838468671	-0.487948630936444
382	9.55	-0.00690098037011921	-0.487948630936444
383	9.575	-0.00561130838468671	-0.487948630936444
384	9.6	-0.00561130838468671	-0.487948630936444
385	9.625	-0.00561130838468671	-0.486658958951011
386	9.65	-0.00561130838468671	-0.487948630936444
387	9.675	-0.00561130838468671	-0.486658958951011
388	9.7	-0.00561130838468671	-0.486658958951011
389	9.725	-0.00561130838468671	-0.486658958951011
390	9.75	-0.00561130838468671	-0.486658958951011
391	9.775	-0.00561130838468671	-0.485369286965579
392	9.8	-0.00561130838468671	-0.485369286965579
393	9.825	-0.00561130838468671	-0.486658958951011
394	9.85	-0.00561130838468671	-0.485369286965579
395	9.875	-0.00561130838468671	-0.486658958951011
396	9.9	-0.00561130838468671	-0.485369286965579
397	9.925	-0.00561130838468671	-0.485369286965579
398	9.95	-0.00561130838468671	-0.485369286965579
399	9.975	-0.00561130838468671	-0.485369286965579
400	10	-0.00561130838468671	-0.485369286965579
401	10.025	-0.00561130838468671	-0.485369286965579
402	10.05	-0.00561130838468671	-0.485369286965579
403	10.075	-0.00561130838468671	-0.485369286965579
404	10.1	-0.00561130838468671	-0.485369286965579
405	10.125	-0.00561130838468671	-0.484079614980146
406	10.15	-0.00690098037011921	-0.485369286965579
