Number of measurement points: 5621
Sample Rate (Hz): 100
Low limit Ch0 (V): -10
Upper limit Ch0 (V): 10
Low limit Ch1 (V): -10
Upper limit Ch1 (V): 10

Index	Time[s]	Ch0[V]	Ch1[V]
0	0	-0.00561130838468671	0.688232219778001
1	0.01	-0.00819065235555172	0.688232219778001
2	0.02	-0.00690098037011921	0.688232219778001
3	0.03	-0.00690098037011921	0.688232219778001
4	0.04	-0.00561130838468671	0.688232219778001
5	0.05	-0.00690098037011921	0.688232219778001
6	0.06	-0.00690098037011921	0.688232219778001
7	0.07	-0.00690098037011921	0.688232219778001
8	0.08	-0.00690098037011921	0.688232219778001
9	0.09	-0.00690098037011921	0.688232219778001
10	0.1	-0.00690098037011921	0.688232219778001
11	0.11	-0.00561130838468671	0.688232219778001
12	0.12	-0.00690098037011921	0.688232219778001
13	0.13	-0.00819065235555172	0.688232219778001
14	0.14	-0.00561130838468671	0.688232219778001
15	0.15	-0.00690098037011921	0.689521891763434
16	0.16	-0.00690098037011921	0.688232219778001
17	0.17	-0.00690098037011921	0.688232219778001
18	0.18	-0.00690098037011921	0.688232219778001
19	0.19	-0.00690098037011921	0.689521891763434
20	0.2	-0.00690098037011921	0.688232219778001
21	0.21	-0.00690098037011921	0.688232219778001
22	0.22	-0.00561130838468671	0.688232219778001
23	0.23	-0.00690098037011921	0.689521891763434
24	0.24	-0.00690098037011921	0.688232219778001
25	0.25	-0.00690098037011921	0.689521891763434
26	0.26	-0.00690098037011921	0.689521891763434
27	0.27	-0.00561130838468671	0.689521891763434
28	0.28	-0.00690098037011921	0.689521891763434
29	0.29	-0.00561130838468671	0.689521891763434
30	0.3	-0.00690098037011921	0.689521891763434
31	0.31	-0.00690098037011921	0.688232219778001
32	0.32	-0.00690098037011921	0.688232219778001
33	0.33	-0.00690098037011921	0.688232219778001
34	0.34	-0.00690098037011921	0.689521891763434
35	0.35	-0.00690098037011921	0.688232219778001
36	0.36	-0.00690098037011921	0.688232219778001
37	0.37	-0.00690098037011921	0.689521891763434
38	0.38	-0.00690098037011921	0.689521891763434
39	0.39	-0.00561130838468671	0.689521891763434
40	0.4	-0.00690098037011921	0.689521891763434
41	0.41	-0.00690098037011921	0.689521891763434
42	0.42	-0.00690098037011921	0.688232219778001
43	0.43	-0.00690098037011921	0.688232219778001
44	0.44	-0.00690098037011921	0.688232219778001
45	0.45	-0.00690098037011921	0.689521891763434
46	0.46	-0.00690098037011921	0.689521891763434
47	0.47	-0.00690098037011921	0.689521891763434
48	0.48	-0.00690098037011921	0.689521891763434
49	0.49	-0.00690098037011921	0.689521891763434
50	0.5	-0.00690098037011921	0.689521891763434
51	0.51	-0.00690098037011921	0.688232219778001
52	0.52	-0.00690098037011921	0.689521891763434
53	0.53	-0.00690098037011921	0.689521891763434
54	0.54	-0.00561130838468671	0.689521891763434
55	0.55	-0.00690098037011921	0.689521891763434
56	0.56	-0.00690098037011921	0.689521891763434
57	0.57	-0.00561130838468671	0.689521891763434
58	0.58	-0.00561130838468671	0.689521891763434
59	0.59	-0.00690098037011921	0.689521891763434
60	0.6	-0.00690098037011921	0.689521891763434
61	0.61	-0.00690098037011921	0.689521891763434
62	0.62	-0.00561130838468671	0.689521891763434
63	0.63	-0.00690098037011921	0.688232219778001
64	0.64	-0.00819065235555172	0.689521891763434
65	0.65	-0.00690098037011921	0.689521891763434
66	0.66	-0.00690098037011921	0.689521891763434
67	0.67	-0.00690098037011921	0.689521891763434
68	0.68	-0.00690098037011921	0.689521891763434
69	0.69	-0.00690098037011921	0.689521891763434
70	0.7	-0.00690098037011921	0.689521891763434
71	0.71	-0.00819065235555172	0.689521891763434
72	0.72	-0.00690098037011921	0.689521891763434
73	0.73	-0.00690098037011921	0.689521891763434
74	0.74	-0.00690098037011921	0.689521891763434
75	0.75	-0.00690098037011921	0.689521891763434
76	0.76	-0.00561130838468671	0.689521891763434
77	0.77	-0.00690098037011921	0.689521891763434
78	0.78	-0.00690098037011921	0.689521891763434
79	0.79	-0.00561130838468671	0.689521891763434
80	0.8	-0.00690098037011921	0.689521891763434
81	0.81	-0.00690098037011921	0.689521891763434
82	0.82	-0.00561130838468671	0.689521891763434
83	0.83	-0.00690098037011921	0.689521891763434
84	0.84	-0.00561130838468671	0.689521891763434
85	0.85	-0.00690098037011921	0.689521891763434
86	0.86	-0.00690098037011921	0.689521891763434
87	0.87	-0.00690098037011921	0.689521891763434
88	0.88	-0.00561130838468671	0.689521891763434
89	0.89	-0.00561130838468671	0.689521891763434
90	0.9	-0.00690098037011921	0.689521891763434
91	0.91	-0.00690098037011921	0.689521891763434
92	0.92	-0.00690098037011921	0.689521891763434
93	0.93	-0.00690098037011921	0.689521891763434
94	0.94	-0.00690098037011921	0.689521891763434
95	0.95	-0.00690098037011921	0.689521891763434
96	0.96	-0.00690098037011921	0.690811563748866
97	0.97	-0.00561130838468671	0.690811563748866
98	0.98	-0.00690098037011921	0.689521891763434
99	0.99	-0.00690098037011921	0.689521891763434
100	1	-0.00690098037011921	0.689521891763434
101	1.01	-0.00690098037011921	0.690811563748866
102	1.02	-0.00690098037011921	0.689521891763434
103	1.03	-0.00690098037011921	0.689521891763434
104	1.04	-0.00561130838468671	0.689521891763434
105	1.05	-0.00690098037011921	0.689521891763434
106	1.06	-0.00690098037011921	0.689521891763434
107	1.07	-0.00690098037011921	0.689521891763434
108	1.08	-0.00690098037011921	0.690811563748866
109	1.09	-0.00561130838468671	0.689521891763434
110	1.1	-0.00690098037011921	0.689521891763434
111	1.11	-0.00690098037011921	0.690811563748866
112	1.12	-0.00690098037011921	0.690811563748866
113	1.13	-0.00690098037011921	0.690811563748866
114	1.14	-0.00690098037011921	0.690811563748866
115	1.15	-0.00690098037011921	0.689521891763434
116	1.16	-0.00690098037011921	0.689521891763434
117	1.17	-0.00690098037011921	0.690811563748866
118	1.18	-0.00690098037011921	0.689521891763434
119	1.19	-0.00690098037011921	0.690811563748866
120	1.2	-0.00690098037011921	0.690811563748866
121	1.21	-0.00690098037011921	0.689521891763434
122	1.22	-0.00561130838468671	0.689521891763434
123	1.23	-0.00690098037011921	0.690811563748866
124	1.24	-0.00690098037011921	0.690811563748866
125	1.25	-0.00690098037011921	0.690811563748866
126	1.26	-0.00690098037011921	0.690811563748866
127	1.27	-0.00690098037011921	0.690811563748866
128	1.28	-0.00690098037011921	0.690811563748866
129	1.29	-0.00561130838468671	0.690811563748866
130	1.3	-0.00690098037011921	0.690811563748866
131	1.31	-0.00690098037011921	0.690811563748866
132	1.32	-0.00690098037011921	0.690811563748866
133	1.33	-0.00690098037011921	0.690811563748866
134	1.34	-0.00690098037011921	0.690811563748866
135	1.35	-0.00690098037011921	0.690811563748866
136	1.36	-0.00690098037011921	0.690811563748866
137	1.37	-0.00561130838468671	0.690811563748866
138	1.38	-0.00561130838468671	0.690811563748866
139	1.39	-0.00690098037011921	0.690811563748866
140	1.4	-0.00690098037011921	0.690811563748866
141	1.41	-0.00561130838468671	0.690811563748866
142	1.42	-0.00690098037011921	0.690811563748866
143	1.43	-0.00690098037011921	0.690811563748866
144	1.44	-0.00690098037011921	0.690811563748866
145	1.45	-0.00561130838468671	0.689521891763434
146	1.46	-0.00690098037011921	0.689521891763434
147	1.47	-0.00690098037011921	0.689521891763434
148	1.48	-0.00690098037011921	0.690811563748866
149	1.49	-0.00690098037011921	0.690811563748866
150	1.5	-0.00690098037011921	0.690811563748866
151	1.51	-0.00690098037011921	0.690811563748866
152	1.52	-0.00690098037011921	0.689521891763434
153	1.53	-0.00690098037011921	0.690811563748866
154	1.54	-0.00690098037011921	0.690811563748866
155	1.55	-0.00690098037011921	0.690811563748866
156	1.56	-0.00690098037011921	0.690811563748866
157	1.57	-0.00690098037011921	0.690811563748866
158	1.58	-0.00690098037011921	0.690811563748866
159	1.59	-0.00561130838468671	0.690811563748866
160	1.6	-0.00690098037011921	0.690811563748866
161	1.61	-0.00690098037011921	0.690811563748866
162	1.62	-0.00561130838468671	0.690811563748866
163	1.63	-0.00690098037011921	0.690811563748866
164	1.64	-0.00690098037011921	0.690811563748866
165	1.65	-0.00690098037011921	0.690811563748866
166	1.66	-0.00690098037011921	0.690811563748866
167	1.67	-0.00690098037011921	0.690811563748866
168	1.68	-0.00690098037011921	0.690811563748866
169	1.69	-0.00690098037011921	0.689521891763434
170	1.7	-0.00690098037011921	0.690811563748866
171	1.71	-0.00690098037011921	0.689521891763434
172	1.72	-0.00690098037011921	0.690811563748866
173	1.73	-0.00690098037011921	0.690811563748866
174	1.74	-0.00690098037011921	0.690811563748866
175	1.75	-0.00690098037011921	0.689521891763434
176	1.76	-0.00561130838468671	0.690811563748866
177	1.77	-0.00690098037011921	0.690811563748866
178	1.78	-0.00690098037011921	0.690811563748866
179	1.79	-0.00561130838468671	0.690811563748866
180	1.8	-0.00561130838468671	0.690811563748866
181	1.81	-0.00561130838468671	0.690811563748866
182	1.82	-0.00690098037011921	0.690811563748866
183	1.83	-0.00690098037011921	0.690811563748866
184	1.84	-0.00561130838468671	0.690811563748866
185	1.85	-0.00690098037011921	0.690811563748866
186	1.86	-0.00690098037011921	0.690811563748866
187	1.87	-0.00690098037011921	0.690811563748866
188	1.88	-0.00690098037011921	0.690811563748866
189	1.89	-0.00690098037011921	0.690811563748866
190	1.9	-0.00690098037011921	0.690811563748866
191	1.91	-0.00690098037011921	0.690811563748866
192	1.92	-0.00690098037011921	0.690811563748866
193	1.93	-0.00690098037011921	0.690811563748866
194	1.94	-0.00690098037011921	0.692101235734299
195	1.95	-0.00690098037011921	0.690811563748866
196	1.96	-0.00690098037011921	0.690811563748866
197	1.97	-0.00561130838468671	0.690811563748866
198	1.98	-0.00690098037011921	0.690811563748866
199	1.99	-0.00690098037011921	0.690811563748866
200	2	-0.00561130838468671	0.690811563748866
201	2.01	-0.00690098037011921	0.690811563748866
202	2.02	-0.00690098037011921	0.690811563748866
203	2.03	-0.00690098037011921	0.690811563748866
204	2.04	-0.00690098037011921	0.690811563748866
205	2.05	-0.00690098037011921	0.690811563748866
206	2.06	-0.00690098037011921	0.690811563748866
207	2.07	-0.00561130838468671	0.690811563748866
208	2.08	-0.00690098037011921	0.690811563748866
209	2.09	-0.00690098037011921	0.690811563748866
210	2.1	-0.00690098037011921	0.690811563748866
211	2.11	-0.00690098037011921	0.690811563748866
212	2.12	-0.00690098037011921	0.690811563748866
213	2.13	-0.00690098037011921	0.690811563748866
214	2.14	-0.00690098037011921	0.690811563748866
215	2.15	-0.00690098037011921	0.690811563748866
216	2.16	-0.00690098037011921	0.690811563748866
217	2.17	-0.00690098037011921	0.690811563748866
218	2.18	-0.00690098037011921	0.690811563748866
219	2.19	-0.00561130838468671	0.690811563748866
220	2.2	-0.00561130838468671	0.690811563748866
221	2.21	-0.00561130838468671	0.690811563748866
222	2.22	-0.00690098037011921	0.690811563748866
223	2.23	-0.00690098037011921	0.690811563748866
224	2.24	-0.00561130838468671	0.690811563748866
225	2.25	-0.00690098037011921	0.690811563748866
226	2.26	-0.00690098037011921	0.690811563748866
227	2.27	-0.00690098037011921	0.690811563748866
228	2.28	-0.00690098037011921	0.690811563748866
229	2.29	-0.00690098037011921	0.690811563748866
230	2.3	-0.00690098037011921	0.690811563748866
231	2.31	-0.00690098037011921	0.690811563748866
232	2.32	-0.00690098037011921	0.690811563748866
233	2.33	-0.00690098037011921	0.690811563748866
234	2.34	-0.00690098037011921	0.690811563748866
235	2.35	-0.00690098037011921	0.690811563748866
236	2.36	-0.00561130838468671	0.690811563748866
237	2.37	-0.00690098037011921	0.690811563748866
238	2.38	-0.00690098037011921	0.690811563748866
239	2.39	-0.00690098037011921	0.690811563748866
240	2.4	-0.00690098037011921	0.690811563748866
241	2.41	-0.00690098037011921	0.690811563748866
242	2.42	-0.00690098037011921	0.690811563748866
243	2.43	-0.00690098037011921	0.690811563748866
244	2.44	-0.00561130838468671	0.690811563748866
245	2.45	-0.00690098037011921	0.690811563748866
246	2.46	-0.00690098037011921	0.690811563748866
247	2.47	-0.00690098037011921	0.690811563748866
248	2.48	-0.00690098037011921	0.690811563748866
249	2.49	-0.00690098037011921	0.690811563748866
250	2.5	-0.00690098037011921	0.689521891763434
251	2.51	-0.00690098037011921	0.690811563748866
252	2.52	-0.00690098037011921	0.690811563748866
253	2.53	-0.00690098037011921	0.690811563748866
254	2.54	-0.00690098037011921	0.690811563748866
255	2.55	-0.00690098037011921	0.690811563748866
256	2.56	-0.00690098037011921	0.690811563748866
257	2.57	-0.00690098037011921	0.690811563748866
258	2.58	-0.00690098037011921	0.690811563748866
259	2.59	-0.00690098037011921	0.690811563748866
260	2.6	-0.00690098037011921	0.690811563748866
261	2.61	-0.00690098037011921	0.690811563748866
262	2.62	-0.00561130838468671	0.690811563748866
263	2.63	-0.00690098037011921	0.690811563748866
264	2.64	-0.00690098037011921	0.690811563748866
265	2.65	-0.00561130838468671	0.690811563748866
266	2.66	-0.00690098037011921	0.690811563748866
267	2.67	-0.00690098037011921	0.690811563748866
268	2.68	-0.00561130838468671	0.690811563748866
269	2.69	-0.00690098037011921	0.690811563748866
270	2.7	-0.00690098037011921	0.690811563748866
271	2.71	-0.00690098037011921	0.692101235734299
272	2.72	-0.00690098037011921	0.690811563748866
273	2.73	-0.00690098037011921	0.690811563748866
274	2.74	-0.00690098037011921	0.690811563748866
275	2.75	-0.00690098037011921	0.690811563748866
276	2.76	-0.00690098037011921	0.690811563748866
277	2.77	-0.00690098037011921	0.690811563748866
278	2.78	-0.00690098037011921	0.690811563748866
279	2.79	-0.00690098037011921	0.689521891763434
280	2.8	-0.00690098037011921	0.690811563748866
281	2.81	-0.00690098037011921	0.690811563748866
282	2.82	-0.00690098037011921	0.690811563748866
283	2.83	-0.00561130838468671	0.690811563748866
284	2.84	-0.00690098037011921	0.690811563748866
285	2.85	-0.00690098037011921	0.689521891763434
286	2.86	-0.00690098037011921	0.690811563748866
287	2.87	-0.00690098037011921	0.690811563748866
288	2.88	-0.00690098037011921	0.690811563748866
289	2.89	-0.00690098037011921	0.690811563748866
290	2.9	-0.00690098037011921	0.690811563748866
291	2.91	-0.00690098037011921	0.690811563748866
292	2.92	-0.00561130838468671	0.690811563748866
293	2.93	-0.00561130838468671	0.689521891763434
294	2.94	-0.00690098037011921	0.690811563748866
295	2.95	-0.00690098037011921	0.690811563748866
296	2.96	-0.00690098037011921	0.689521891763434
297	2.97	-0.00690098037011921	0.689521891763434
298	2.98	-0.00690098037011921	0.689521891763434
299	2.99	-0.00690098037011921	0.689521891763434
300	3	-0.00690098037011921	0.689521891763434
301	3.01	-0.00819065235555172	0.688232219778001
302	3.02	-0.00819065235555172	0.689521891763434
303	3.03	-0.00690098037011921	0.689521891763434
304	3.04	-0.00690098037011921	0.688232219778001
305	3.05	-0.00819065235555172	0.688232219778001
306	3.06	-0.00819065235555172	0.688232219778001
307	3.07	-0.00819065235555172	0.688232219778001
308	3.08	-0.00819065235555172	0.688232219778001
309	3.09	-0.00819065235555172	0.688232219778001
310	3.1	-0.00819065235555172	0.688232219778001
311	3.11	-0.00690098037011921	0.688232219778001
312	3.12	-0.00819065235555172	0.686942547792569
313	3.13	-0.00819065235555172	0.686942547792569
314	3.14	-0.00819065235555172	0.686942547792569
315	3.15	-0.00819065235555172	0.686942547792569
316	3.16	-0.00819065235555172	0.685652875807136
317	3.17	-0.00819065235555172	0.685652875807136
318	3.18	-0.00819065235555172	0.685652875807136
319	3.19	-0.00819065235555172	0.685652875807136
320	3.2	-0.00690098037011921	0.685652875807136
321	3.21	-0.00819065235555172	0.684363203821704
322	3.22	-0.00819065235555172	0.685652875807136
323	3.23	-0.00819065235555172	0.685652875807136
324	3.24	-0.00819065235555172	0.685652875807136
325	3.25	-0.00819065235555172	0.684363203821704
326	3.26	-0.00819065235555172	0.684363203821704
327	3.27	-0.00819065235555172	0.684363203821704
328	3.28	-0.00819065235555172	0.684363203821704
329	3.29	-0.00819065235555172	0.683073531836271
330	3.3	-0.00819065235555172	0.683073531836271
331	3.31	-0.00819065235555172	0.684363203821704
332	3.32	-0.00690098037011921	0.683073531836271
333	3.33	-0.00819065235555172	0.683073531836271
334	3.34	-0.00819065235555172	0.683073531836271
335	3.35	-0.00819065235555172	0.681783859850839
336	3.36	-0.00819065235555172	0.683073531836271
337	3.37	-0.00819065235555172	0.681783859850839
338	3.38	-0.00819065235555172	0.681783859850839
339	3.39	-0.00690098037011921	0.681783859850839
340	3.4	-0.00690098037011921	0.681783859850839
341	3.41	-0.00690098037011921	0.681783859850839
342	3.42	-0.00690098037011921	0.681783859850839
343	3.43	-0.00690098037011921	0.680494187865406
344	3.44	-0.00690098037011921	0.680494187865406
345	3.45	-0.00690098037011921	0.680494187865406
346	3.46	-0.00690098037011921	0.680494187865406
347	3.47	-0.00690098037011921	0.680494187865406
348	3.48	-0.00561130838468671	0.680494187865406
349	3.49	-0.00561130838468671	0.679204515879974
350	3.5	-0.00690098037011921	0.679204515879974
351	3.51	-0.00561130838468671	0.679204515879974
352	3.52	-0.0043216363992542	0.679204515879974
353	3.53	-0.00561130838468671	0.679204515879974
354	3.54	-0.0043216363992542	0.679204515879974
355	3.55	-0.0043216363992542	0.677914843894541
356	3.56	-0.0043216363992542	0.677914843894541
357	3.57	-0.00561130838468671	0.677914843894541
358	3.58	-0.0043216363992542	0.677914843894541
359	3.59	-0.00561130838468671	0.677914843894541
360	3.6	-0.0043216363992542	0.677914843894541
361	3.61	-0.0043216363992542	0.676625171909109
362	3.62	-0.0043216363992542	0.676625171909109
363	3.63	-0.0043216363992542	0.676625171909109
364	3.64	-0.0030319644138217	0.676625171909109
365	3.65	-0.0043216363992542	0.675335499923676
366	3.66	-0.0043216363992542	0.676625171909109
367	3.67	-0.0030319644138217	0.675335499923676
368	3.68	-0.0030319644138217	0.675335499923676
369	3.69	-0.0043216363992542	0.675335499923676
370	3.7	-0.0030319644138217	0.675335499923676
371	3.71	-0.0043216363992542	0.674045827938244
372	3.72	-0.0030319644138217	0.675335499923676
373	3.73	-0.0043216363992542	0.674045827938244
374	3.74	-0.0043216363992542	0.674045827938244
375	3.75	-0.0043216363992542	0.674045827938244
376	3.76	-0.0043216363992542	0.674045827938244
377	3.77	-0.0043216363992542	0.674045827938244
378	3.78	-0.0030319644138217	0.672756155952811
379	3.79	-0.0043216363992542	0.672756155952811
380	3.8	-0.0043216363992542	0.671466483967379
381	3.81	-0.0043216363992542	0.671466483967379
382	3.82	-0.0043216363992542	0.672756155952811
383	3.83	-0.0043216363992542	0.671466483967379
384	3.84	-0.0043216363992542	0.671466483967379
385	3.85	-0.0043216363992542	0.670176811981946
386	3.86	-0.0043216363992542	0.670176811981946
387	3.87	-0.0043216363992542	0.670176811981946
388	3.88	-0.0043216363992542	0.670176811981946
389	3.89	-0.0043216363992542	0.670176811981946
390	3.9	-0.00561130838468671	0.668887139996514
391	3.91	-0.0043216363992542	0.668887139996514
392	3.92	-0.0043216363992542	0.668887139996514
393	3.93	-0.0043216363992542	0.667597468011081
394	3.94	-0.00561130838468671	0.667597468011081
395	3.95	-0.00561130838468671	0.667597468011081
396	3.96	-0.00561130838468671	0.667597468011081
397	3.97	-0.0043216363992542	0.666307796025649
398	3.98	-0.00561130838468671	0.667597468011081
399	3.99	-0.00561130838468671	0.666307796025649
400	4	-0.00561130838468671	0.666307796025649
401	4.01	-0.00561130838468671	0.665018124040216
402	4.02	-0.00561130838468671	0.665018124040216
403	4.03	-0.00561130838468671	0.665018124040216
404	4.04	-0.00690098037011921	0.665018124040216
405	4.05	-0.00690098037011921	0.665018124040216
406	4.06	-0.00690098037011921	0.665018124040216
407	4.07	-0.00690098037011921	0.663728452054784
408	4.08	-0.00690098037011921	0.663728452054784
409	4.09	-0.00819065235555172	0.662438780069351
410	4.1	-0.00690098037011921	0.662438780069351
411	4.11	-0.00819065235555172	0.662438780069351
412	4.12	-0.00819065235555172	0.662438780069351
413	4.13	-0.00690098037011921	0.662438780069351
414	4.14	-0.00948032434098423	0.662438780069351
415	4.15	-0.00948032434098423	0.661149108083919
416	4.16	-0.00948032434098423	0.661149108083919
