Number of measurement points: 5388
Sample Rate (Hz): 100
Low limit Ch0 (V): -10
Upper limit Ch0 (V): 10
Low limit Ch1 (V): -10
Upper limit Ch1 (V): 10

Index	Time[s]	Ch0[V]	Ch1[V]
0	0	-0.26483537745662	0.480595030123368
1	0.01	-0.260966361500323	0.479305358137935
2	0.02	-0.262256033485755	0.480595030123368
3	0.03	-0.266125049442053	0.479305358137935
4	0.04	-0.262256033485755	0.480595030123368
5	0.05	-0.263545705471188	0.480595030123368
6	0.06	-0.263545705471188	0.480595030123368
7	0.07	-0.260966361500323	0.480595030123368
8	0.08	-0.266125049442053	0.480595030123368
9	0.09	-0.260966361500323	0.480595030123368
10	0.1	-0.26483537745662	0.480595030123368
11	0.11	-0.263545705471188	0.480595030123368
12	0.12	-0.262256033485755	0.480595030123368
13	0.13	-0.262256033485755	0.480595030123368
14	0.14	-0.25967668951489	0.480595030123368
15	0.15	-0.267414721427485	0.480595030123368
16	0.16	-0.263545705471188	0.480595030123368
17	0.17	-0.263545705471188	0.480595030123368
18	0.18	-0.26483537745662	0.480595030123368
19	0.19	-0.260966361500323	0.480595030123368
20	0.2	-0.263545705471188	0.480595030123368
21	0.21	-0.260966361500323	0.480595030123368
22	0.22	-0.260966361500323	0.480595030123368
23	0.23	-0.263545705471188	0.480595030123368
24	0.24	-0.262256033485755	0.480595030123368
25	0.25	-0.267414721427485	0.480595030123368
26	0.26	-0.25967668951489	0.480595030123368
27	0.27	-0.260966361500323	0.480595030123368
28	0.28	-0.262256033485755	0.480595030123368
29	0.29	-0.260966361500323	0.479305358137935
30	0.3	-0.26483537745662	0.480595030123368
31	0.31	-0.262256033485755	0.479305358137935
32	0.32	-0.262256033485755	0.480595030123368
33	0.33	-0.260966361500323	0.479305358137935
34	0.34	-0.260966361500323	0.480595030123368
35	0.35	-0.266125049442053	0.480595030123368
36	0.36	-0.260966361500323	0.479305358137935
37	0.37	-0.262256033485755	0.479305358137935
38	0.38	-0.263545705471188	0.480595030123368
39	0.39	-0.25967668951489	0.479305358137935
40	0.4	-0.263545705471188	0.479305358137935
41	0.41	-0.260966361500323	0.480595030123368
42	0.42	-0.266125049442053	0.480595030123368
43	0.43	-0.267414721427485	0.480595030123368
44	0.44	-0.262256033485755	0.480595030123368
45	0.45	-0.25967668951489	0.480595030123368
46	0.46	-0.263545705471188	0.480595030123368
47	0.47	-0.25967668951489	0.480595030123368
48	0.48	-0.266125049442053	0.480595030123368
49	0.49	-0.26483537745662	0.480595030123368
50	0.5	-0.262256033485755	0.479305358137935
51	0.51	-0.263545705471188	0.480595030123368
52	0.52	-0.260966361500323	0.479305358137935
53	0.53	-0.266125049442053	0.480595030123368
54	0.54	-0.263545705471188	0.479305358137935
55	0.55	-0.263545705471188	0.479305358137935
56	0.56	-0.25967668951489	0.480595030123368
57	0.57	-0.26483537745662	0.479305358137935
58	0.58	-0.260966361500323	0.479305358137935
59	0.59	-0.262256033485755	0.479305358137935
60	0.6	-0.263545705471188	0.480595030123368
61	0.61	-0.263545705471188	0.480595030123368
62	0.62	-0.266125049442053	0.479305358137935
63	0.63	-0.267414721427485	0.480595030123368
64	0.64	-0.266125049442053	0.480595030123368
65	0.65	-0.263545705471188	0.480595030123368
66	0.66	-0.262256033485755	0.479305358137935
67	0.67	-0.263545705471188	0.479305358137935
68	0.68	-0.26483537745662	0.480595030123368
69	0.69	-0.260966361500323	0.480595030123368
70	0.7	-0.25967668951489	0.479305358137935
71	0.71	-0.260966361500323	0.480595030123368
72	0.72	-0.262256033485755	0.480595030123368
73	0.73	-0.266125049442053	0.480595030123368
74	0.74	-0.263545705471188	0.480595030123368
75	0.75	-0.260966361500323	0.480595030123368
76	0.76	-0.263545705471188	0.480595030123368
77	0.77	-0.262256033485755	0.480595030123368
78	0.78	-0.262256033485755	0.479305358137935
79	0.79	-0.262256033485755	0.480595030123368
80	0.8	-0.26483537745662	0.480595030123368
81	0.81	-0.262256033485755	0.479305358137935
82	0.82	-0.268704393412918	0.480595030123368
83	0.83	-0.26483537745662	0.479305358137935
84	0.84	-0.263545705471188	0.479305358137935
85	0.85	-0.262256033485755	0.480595030123368
86	0.86	-0.26483537745662	0.480595030123368
87	0.87	-0.263545705471188	0.480595030123368
88	0.88	-0.266125049442053	0.480595030123368
89	0.89	-0.262256033485755	0.480595030123368
90	0.9	-0.26483537745662	0.480595030123368
91	0.91	-0.267414721427485	0.480595030123368
92	0.92	-0.262256033485755	0.480595030123368
93	0.93	-0.262256033485755	0.480595030123368
94	0.94	-0.262256033485755	0.480595030123368
95	0.95	-0.262256033485755	0.480595030123368
96	0.96	-0.262256033485755	0.480595030123368
97	0.97	-0.267414721427485	0.479305358137935
98	0.98	-0.268704393412918	0.480595030123368
99	0.99	-0.267414721427485	0.480595030123368
100	1	-0.25967668951489	0.480595030123368
101	1.01	-0.266125049442053	0.480595030123368
102	1.02	-0.26483537745662	0.480595030123368
103	1.03	-0.271283737383783	0.480595030123368
104	1.04	-0.267414721427485	0.480595030123368
105	1.05	-0.266125049442053	0.480595030123368
106	1.06	-0.272573409369215	0.480595030123368
107	1.07	-0.263545705471188	0.480595030123368
108	1.08	-0.268704393412918	0.480595030123368
109	1.09	-0.26483537745662	0.480595030123368
110	1.1	-0.26483537745662	0.480595030123368
111	1.11	-0.267414721427485	0.480595030123368
112	1.12	-0.262256033485755	0.480595030123368
113	1.13	-0.268704393412918	0.480595030123368
114	1.14	-0.262256033485755	0.480595030123368
115	1.15	-0.263545705471188	0.479305358137935
116	1.16	-0.26999406539835	0.480595030123368
117	1.17	-0.25967668951489	0.480595030123368
118	1.18	-0.268704393412918	0.480595030123368
119	1.19	-0.26483537745662	0.480595030123368
120	1.2	-0.263545705471188	0.479305358137935
121	1.21	-0.26483537745662	0.479305358137935
122	1.22	-0.262256033485755	0.480595030123368
123	1.23	-0.267414721427485	0.480595030123368
124	1.24	-0.262256033485755	0.480595030123368
125	1.25	-0.255807673558593	0.480595030123368
126	1.26	-0.26999406539835	0.480595030123368
127	1.27	-0.260966361500323	0.480595030123368
128	1.28	-0.268704393412918	0.480595030123368
129	1.29	-0.260966361500323	0.480595030123368
130	1.3	-0.260966361500323	0.480595030123368
131	1.31	-0.268704393412918	0.480595030123368
132	1.32	-0.262256033485755	0.480595030123368
133	1.33	-0.267414721427485	0.480595030123368
134	1.34	-0.263545705471188	0.479305358137935
135	1.35	-0.262256033485755	0.480595030123368
136	1.36	-0.271283737383783	0.480595030123368
137	1.37	-0.26483537745662	0.480595030123368
138	1.38	-0.266125049442053	0.480595030123368
139	1.39	-0.266125049442053	0.480595030123368
140	1.4	-0.262256033485755	0.480595030123368
141	1.41	-0.267414721427485	0.480595030123368
142	1.42	-0.26483537745662	0.480595030123368
143	1.43	-0.263545705471188	0.480595030123368
144	1.44	-0.262256033485755	0.480595030123368
145	1.45	-0.26483537745662	0.479305358137935
146	1.46	-0.268704393412918	0.480595030123368
147	1.47	-0.26483537745662	0.480595030123368
148	1.48	-0.25967668951489	0.479305358137935
149	1.49	-0.260966361500323	0.480595030123368
150	1.5	-0.262256033485755	0.479305358137935
151	1.51	-0.267414721427485	0.480595030123368
152	1.52	-0.258387017529458	0.479305358137935
153	1.53	-0.260966361500323	0.480595030123368
154	1.54	-0.267414721427485	0.480595030123368
155	1.55	-0.258387017529458	0.480595030123368
156	1.56	-0.271283737383783	0.480595030123368
157	1.57	-0.266125049442053	0.480595030123368
158	1.58	-0.262256033485755	0.480595030123368
159	1.59	-0.260966361500323	0.480595030123368
160	1.6	-0.262256033485755	0.479305358137935
161	1.61	-0.271283737383783	0.479305358137935
162	1.62	-0.263545705471188	0.480595030123368
163	1.63	-0.262256033485755	0.480595030123368
164	1.64	-0.262256033485755	0.479305358137935
165	1.65	-0.257097345544025	0.479305358137935
166	1.66	-0.267414721427485	0.480595030123368
167	1.67	-0.262256033485755	0.480595030123368
168	1.68	-0.260966361500323	0.480595030123368
169	1.69	-0.263545705471188	0.480595030123368
170	1.7	-0.262256033485755	0.480595030123368
171	1.71	-0.271283737383783	0.479305358137935
172	1.72	-0.26483537745662	0.480595030123368
173	1.73	-0.260966361500323	0.480595030123368
174	1.74	-0.263545705471188	0.480595030123368
175	1.75	-0.262256033485755	0.479305358137935
176	1.76	-0.26483537745662	0.480595030123368
177	1.77	-0.260966361500323	0.480595030123368
178	1.78	-0.263545705471188	0.480595030123368
179	1.79	-0.266125049442053	0.480595030123368
180	1.8	-0.263545705471188	0.480595030123368
181	1.81	-0.267414721427485	0.479305358137935
182	1.82	-0.26483537745662	0.480595030123368
183	1.83	-0.260966361500323	0.480595030123368
184	1.84	-0.26483537745662	0.480595030123368
185	1.85	-0.263545705471188	0.480595030123368
186	1.86	-0.262256033485755	0.480595030123368
187	1.87	-0.263545705471188	0.480595030123368
188	1.88	-0.25967668951489	0.480595030123368
189	1.89	-0.267414721427485	0.480595030123368
190	1.9	-0.262256033485755	0.480595030123368
191	1.91	-0.268704393412918	0.480595030123368
192	1.92	-0.262256033485755	0.480595030123368
193	1.93	-0.260966361500323	0.480595030123368
194	1.94	-0.263545705471188	0.480595030123368
195	1.95	-0.26483537745662	0.480595030123368
196	1.96	-0.268704393412918	0.480595030123368
197	1.97	-0.260966361500323	0.480595030123368
198	1.98	-0.25967668951489	0.480595030123368
199	1.99	-0.267414721427485	0.480595030123368
200	2	-0.262256033485755	0.480595030123368
201	2.01	-0.26999406539835	0.480595030123368
202	2.02	-0.26483537745662	0.480595030123368
203	2.03	-0.260966361500323	0.480595030123368
204	2.04	-0.266125049442053	0.480595030123368
205	2.05	-0.263545705471188	0.480595030123368
206	2.06	-0.266125049442053	0.480595030123368
207	2.07	-0.260966361500323	0.480595030123368
208	2.08	-0.262256033485755	0.480595030123368
209	2.09	-0.263545705471188	0.480595030123368
210	2.1	-0.262256033485755	0.479305358137935
211	2.11	-0.266125049442053	0.480595030123368
212	2.12	-0.262256033485755	0.480595030123368
213	2.13	-0.263545705471188	0.480595030123368
214	2.14	-0.26483537745662	0.479305358137935
215	2.15	-0.262256033485755	0.480595030123368
216	2.16	-0.263545705471188	0.480595030123368
217	2.17	-0.263545705471188	0.480595030123368
218	2.18	-0.25967668951489	0.480595030123368
219	2.19	-0.262256033485755	0.480595030123368
220	2.2	-0.263545705471188	0.480595030123368
221	2.21	-0.267414721427485	0.480595030123368
222	2.22	-0.263545705471188	0.479305358137935
223	2.23	-0.262256033485755	0.480595030123368
224	2.24	-0.262256033485755	0.480595030123368
225	2.25	-0.260966361500323	0.480595030123368
226	2.26	-0.267414721427485	0.480595030123368
227	2.27	-0.260966361500323	0.480595030123368
228	2.28	-0.258387017529458	0.480595030123368
229	2.29	-0.266125049442053	0.480595030123368
230	2.3	-0.267414721427485	0.480595030123368
231	2.31	-0.263545705471188	0.480595030123368
232	2.32	-0.268704393412918	0.480595030123368
233	2.33	-0.263545705471188	0.480595030123368
234	2.34	-0.266125049442053	0.480595030123368
235	2.35	-0.263545705471188	0.480595030123368
236	2.36	-0.262256033485755	0.479305358137935
237	2.37	-0.262256033485755	0.480595030123368
238	2.38	-0.262256033485755	0.479305358137935
239	2.39	-0.267414721427485	0.480595030123368
240	2.4	-0.263545705471188	0.480595030123368
241	2.41	-0.262256033485755	0.480595030123368
242	2.42	-0.25967668951489	0.480595030123368
243	2.43	-0.25967668951489	0.480595030123368
244	2.44	-0.262256033485755	0.480595030123368
245	2.45	-0.266125049442053	0.480595030123368
246	2.46	-0.258387017529458	0.480595030123368
247	2.47	-0.262256033485755	0.480595030123368
248	2.48	-0.260966361500323	0.480595030123368
249	2.49	-0.26999406539835	0.480595030123368
250	2.5	-0.260966361500323	0.480595030123368
251	2.51	-0.260966361500323	0.479305358137935
252	2.52	-0.257097345544025	0.480595030123368
253	2.53	-0.257097345544025	0.479305358137935
254	2.54	-0.266125049442053	0.479305358137935
255	2.55	-0.266125049442053	0.480595030123368
256	2.56	-0.263545705471188	0.480595030123368
257	2.57	-0.25967668951489	0.480595030123368
258	2.58	-0.262256033485755	0.480595030123368
259	2.59	-0.260966361500323	0.480595030123368
260	2.6	-0.267414721427485	0.479305358137935
261	2.61	-0.263545705471188	0.480595030123368
262	2.62	-0.260966361500323	0.480595030123368
263	2.63	-0.260966361500323	0.480595030123368
264	2.64	-0.260966361500323	0.480595030123368
265	2.65	-0.263545705471188	0.479305358137935
266	2.66	-0.260966361500323	0.480595030123368
267	2.67	-0.260966361500323	0.480595030123368
268	2.68	-0.262256033485755	0.479305358137935
269	2.69	-0.26483537745662	0.480595030123368
270	2.7	-0.25967668951489	0.480595030123368
271	2.71	-0.267414721427485	0.480595030123368
272	2.72	-0.262256033485755	0.480595030123368
273	2.73	-0.263545705471188	0.480595030123368
274	2.74	-0.263545705471188	0.480595030123368
275	2.75	-0.258387017529458	0.480595030123368
276	2.76	-0.263545705471188	0.480595030123368
277	2.77	-0.262256033485755	0.480595030123368
278	2.78	-0.260966361500323	0.480595030123368
279	2.79	-0.266125049442053	0.480595030123368
280	2.8	-0.26483537745662	0.480595030123368
281	2.81	-0.262256033485755	0.479305358137935
282	2.82	-0.25967668951489	0.480595030123368
283	2.83	-0.263545705471188	0.480595030123368
284	2.84	-0.267414721427485	0.480595030123368
285	2.85	-0.260966361500323	0.480595030123368
286	2.86	-0.263545705471188	0.480595030123368
287	2.87	-0.266125049442053	0.479305358137935
288	2.88	-0.260966361500323	0.480595030123368
289	2.89	-0.263545705471188	0.480595030123368
290	2.9	-0.262256033485755	0.480595030123368
291	2.91	-0.266125049442053	0.479305358137935
292	2.92	-0.266125049442053	0.479305358137935
293	2.93	-0.258387017529458	0.480595030123368
294	2.94	-0.267414721427485	0.479305358137935
295	2.95	-0.260966361500323	0.480595030123368
296	2.96	-0.263545705471188	0.480595030123368
297	2.97	-0.266125049442053	0.480595030123368
298	2.98	-0.262256033485755	0.480595030123368
299	2.99	-0.266125049442053	0.480595030123368
300	3	-0.258387017529458	0.480595030123368
301	3.01	-0.260966361500323	0.479305358137935
302	3.02	-0.262256033485755	0.480595030123368
303	3.03	-0.263545705471188	0.480595030123368
304	3.04	-0.25967668951489	0.480595030123368
305	3.05	-0.260966361500323	0.480595030123368
306	3.06	-0.262256033485755	0.480595030123368
307	3.07	-0.266125049442053	0.479305358137935
308	3.08	-0.25967668951489	0.480595030123368
309	3.09	-0.266125049442053	0.480595030123368
310	3.1	-0.258387017529458	0.480595030123368
311	3.11	-0.258387017529458	0.480595030123368
312	3.12	-0.25967668951489	0.480595030123368
313	3.13	-0.262256033485755	0.480595030123368
314	3.14	-0.262256033485755	0.480595030123368
315	3.15	-0.260966361500323	0.479305358137935
316	3.16	-0.258387017529458	0.479305358137935
317	3.17	-0.262256033485755	0.479305358137935
318	3.18	-0.25967668951489	0.480595030123368
319	3.19	-0.260966361500323	0.479305358137935
320	3.2	-0.258387017529458	0.479305358137935
321	3.21	-0.263545705471188	0.479305358137935
322	3.22	-0.266125049442053	0.479305358137935
323	3.23	-0.25967668951489	0.479305358137935
324	3.24	-0.266125049442053	0.479305358137935
325	3.25	-0.25967668951489	0.479305358137935
326	3.26	-0.258387017529458	0.479305358137935
327	3.27	-0.262256033485755	0.479305358137935
328	3.28	-0.258387017529458	0.479305358137935
329	3.29	-0.25967668951489	0.478015686152503
330	3.3	-0.260966361500323	0.478015686152503
331	3.31	-0.260966361500323	0.478015686152503
332	3.32	-0.263545705471188	0.478015686152503
333	3.33	-0.258387017529458	0.478015686152503
334	3.34	-0.262256033485755	0.47672601416707
335	3.35	-0.25967668951489	0.47672601416707
336	3.36	-0.258387017529458	0.478015686152503
337	3.37	-0.26483537745662	0.478015686152503
338	3.38	-0.25967668951489	0.478015686152503
339	3.39	-0.25967668951489	0.47672601416707
340	3.4	-0.262256033485755	0.47672601416707
341	3.41	-0.262256033485755	0.47672601416707
342	3.42	-0.26483537745662	0.47672601416707
343	3.43	-0.25967668951489	0.47672601416707
344	3.44	-0.263545705471188	0.47672601416707
345	3.45	-0.263545705471188	0.475436342181638
346	3.46	-0.263545705471188	0.475436342181638
347	3.47	-0.267414721427485	0.475436342181638
348	3.48	-0.266125049442053	0.475436342181638
349	3.49	-0.267414721427485	0.474146670196205
350	3.5	-0.268704393412918	0.474146670196205
351	3.51	-0.267414721427485	0.474146670196205
352	3.52	-0.266125049442053	0.474146670196205
353	3.53	-0.273863081354648	0.474146670196205
354	3.54	-0.272573409369215	0.474146670196205
355	3.55	-0.266125049442053	0.474146670196205
356	3.56	-0.267414721427485	0.474146670196205
357	3.57	-0.277732097310945	0.474146670196205
358	3.58	-0.27515275334008	0.474146670196205
359	3.59	-0.277732097310945	0.472856998210773
360	3.6	-0.273863081354648	0.472856998210773
361	3.61	-0.28031144128181	0.472856998210773
362	3.62	-0.277732097310945	0.472856998210773
363	3.63	-0.27515275334008	0.472856998210773
364	3.64	-0.277732097310945	0.472856998210773
365	3.65	-0.28031144128181	0.472856998210773
366	3.66	-0.284180457238108	0.47156732622534
367	3.67	-0.284180457238108	0.47156732622534
368	3.68	-0.282890785252675	0.47156732622534
369	3.69	-0.288049473194405	0.47156732622534
370	3.7	-0.28547012922354	0.470277654239908
371	3.71	-0.284180457238108	0.470277654239908
372	3.72	-0.291918489150703	0.470277654239908
373	3.73	-0.289339145179838	0.470277654239908
374	3.74	-0.295787505107	0.470277654239908
375	3.75	-0.295787505107	0.468987982254475
376	3.76	-0.293208161136135	0.470277654239908
377	3.77	-0.298366849077865	0.468987982254475
378	3.78	-0.298366849077865	0.467698310269043
379	3.79	-0.298366849077865	0.468987982254475
380	3.8	-0.30094619304873	0.468987982254475
381	3.81	-0.298366849077865	0.467698310269043
382	3.82	-0.304815209005028	0.467698310269043
383	3.83	-0.307394552975893	0.467698310269043
384	3.84	-0.307394552975893	0.467698310269043
385	3.85	-0.311263568932191	0.46640863828361
386	3.86	-0.307394552975893	0.46640863828361
387	3.87	-0.315132584888488	0.467698310269043
388	3.88	-0.309973896946758	0.46640863828361
389	3.89	-0.311263568932191	0.46640863828361
390	3.9	-0.316422256873921	0.465118966298178
391	3.91	-0.308684224961326	0.46640863828361
392	3.92	-0.319001600844786	0.465118966298178
393	3.93	-0.316422256873921	0.465118966298178
394	3.94	-0.321580944815651	0.465118966298178
395	3.95	-0.328029304742813	0.465118966298178
396	3.96	-0.322870616801083	0.465118966298178
397	3.97	-0.324160288786516	0.465118966298178
398	3.98	-0.325449960771948	0.463829294312745
399	3.99	-0.328029304742813	0.463829294312745
400	4	-0.334477664669976	0.463829294312745
401	4.01	-0.326739632757381	0.463829294312745
402	4.02	-0.338346680626273	0.463829294312745
403	4.03	-0.331898320699111	0.462539622327313
404	4.04	-0.335767336655408	0.462539622327313
405	4.05	-0.344795040553436	0.462539622327313
406	4.06	-0.340926024597138	0.462539622327313
407	4.07	-0.347374384524301	0.462539622327313
408	4.08	-0.338346680626273	0.46124995034188
409	4.09	-0.340926024597138	0.46124995034188
410	4.1	-0.351243400480598	0.46124995034188
411	4.11	-0.339636352611706	0.459960278356448
412	4.12	-0.352533072466031	0.46124995034188
413	4.13	-0.347374384524301	0.459960278356448
414	4.14	-0.348664056509733	0.459960278356448
415	4.15	-0.355112416436896	0.46124995034188
416	4.16	-0.349953728495166	0.459960278356448
417	4.17	-0.357691760407761	0.459960278356448
418	4.18	-0.355112416436896	0.458670606371015
419	4.19	-0.358981432393193	0.458670606371015
420	4.2	-0.358981432393193	0.458670606371015
421	4.21	-0.361560776364058	0.457380934385583
422	4.22	-0.358981432393193	0.458670606371015
423	4.23	-0.361560776364058	0.458670606371015
424	4.24	-0.361560776364058	0.457380934385583
425	4.25	-0.362850448349491	0.457380934385583
426	4.26	-0.365429792320356	0.457380934385583
427	4.27	-0.368009136291221	0.457380934385583
428	4.28	-0.360271104378626	0.457380934385583
429	4.29	-0.370588480262086	0.45609126240015
430	4.3	-0.371878152247518	0.45609126240015
431	4.31	-0.365429792320356	0.45609126240015
432	4.32	-0.370588480262086	0.45609126240015
433	4.33	-0.371878152247518	0.454801590414718
434	4.34	-0.370588480262086	0.454801590414718
435	4.35	-0.379616184160113	0.454801590414718
