Number of measurement points: 431
Sample Rate (Hz): 10
Low limit Ch0 (V): -10
Upper limit Ch0 (V): 10
Low limit Ch1 (V): -10
Upper limit Ch1 (V): 10

Index	Time[s]	Ch0[V]	Ch1[V]
0	0	-0.0262460601516068	1.67096227267757
1	0.1	-0.0262460601516068	1.67096227267757
2	0.2	-0.0275357321370393	1.67096227267757
3	0.3	-0.0262460601516068	1.67096227267757
4	0.4	-0.0262460601516068	1.67096227267757
5	0.5	-0.0262460601516068	1.67096227267757
6	0.6	-0.0262460601516068	1.67096227267757
7	0.7	-0.0275357321370393	1.67096227267757
8	0.8	-0.0262460601516068	1.66967260069214
9	0.9	-0.0249563881661743	1.67096227267757
10	1	-0.0275357321370393	1.67096227267757
11	1.1	-0.0262460601516068	1.67096227267757
12	1.2	-0.0262460601516068	1.67096227267757
13	1.3	-0.0249563881661743	1.67096227267757
14	1.4	-0.0262460601516068	1.67096227267757
15	1.5	-0.0249563881661743	1.67096227267757
16	1.6	-0.0249563881661743	1.66838292870671
17	1.7	-0.0275357321370393	1.66451391275041
18	1.8	-0.0262460601516068	1.65935522480868
19	1.9	-0.0275357321370393	1.65290686488152
20	2	-0.0249563881661743	1.64645850495435
21	2.1	-0.0275357321370393	1.63872047304176
22	2.2	-0.0262460601516068	1.6322721131146
23	2.3	-0.0275357321370393	1.624534081202
24	2.4	-0.0262460601516068	1.61550637730397
25	2.5	-0.0275357321370393	1.60647867340595
26	2.6	-0.0275357321370393	1.59874064149335
27	2.7	-0.0262460601516068	1.58971293759532
28	2.8	-0.0275357321370393	1.5806852336973
29	2.9	-0.0249563881661743	1.57165752979927
30	3	-0.0262460601516068	1.56262982590124
31	3.1	-0.0262460601516068	1.55360212200321
32	3.2	-0.0262460601516068	1.54457441810519
33	3.3	-0.0288254041224718	1.53554671420716
34	3.4	-0.0275357321370393	1.52651901030913
35	3.5	-0.0262460601516068	1.51878097839653
36	3.6	-0.0275357321370393	1.50975327449851
37	3.7	-0.0275357321370393	1.50072557060048
38	3.8	-0.0275357321370393	1.49298753868788
39	3.9	-0.0275357321370393	1.48395983478986
40	4	-0.0262460601516068	1.47493213089183
41	4.1	-0.0275357321370393	1.46719409897923
42	4.2	-0.0275357321370393	1.45816639508121
43	4.3	-0.0275357321370393	1.44913869118318
44	4.4	-0.0262460601516068	1.44011098728515
45	4.5	-0.0288254041224718	1.43108328338712
46	4.6	-0.0262460601516068	1.4220555794891
47	4.7	-0.0288254041224718	1.41302787559107
48	4.8	-0.0275357321370393	1.40528984367847
49	4.9	-0.0275357321370393	1.39626213978045
50	5	-0.0275357321370393	1.38723443588242
51	5.1	-0.0275357321370393	1.37820673198439
52	5.2	-0.0275357321370393	1.36917902808636
53	5.3	-0.0275357321370393	1.3588616522029
54	5.4	-0.0275357321370393	1.34854427631944
55	5.5	-0.0275357321370393	1.33951657242142
56	5.6	-0.0288254041224718	1.32919919653796
57	5.7	-0.0262460601516068	1.32017149263993
58	5.8	-0.0288254041224718	1.30985411675647
59	5.9	-0.0275357321370393	1.30082641285844
60	6	-0.0301150761079043	1.29179870896041
61	6.1	-0.0301150761079043	1.28277100506239
62	6.2	-0.0275357321370393	1.27503297314979
63	6.3	-0.0275357321370393	1.26471559726633
64	6.4	-0.0275357321370393	1.2556878933683
65	6.5	-0.0288254041224718	1.24794986145571
66	6.6	-0.0288254041224718	1.23763248557225
67	6.7	-0.0288254041224718	1.22989445365965
68	6.8	-0.0288254041224718	1.21957707777619
69	6.9	-0.0288254041224718	1.21054937387817
70	7	-0.0288254041224718	1.20281134196557
71	7.1	-0.0288254041224718	1.19378363806754
72	7.2	-0.0301150761079043	1.18475593416952
73	7.3	-0.0288254041224718	1.17572823027149
74	7.4	-0.0301150761079043	1.16670052637346
75	7.5	-0.0288254041224718	1.15896249446087
76	7.6	-0.0301150761079043	1.14864511857741
77	7.7	-0.0288254041224718	1.13961741467938
78	7.8	-0.0301150761079043	1.13187938276678
79	7.9	-0.0288254041224718	1.12285167886876
80	8	-0.0301150761079043	1.1125343029853
81	8.1	-0.0301150761079043	1.10350659908727
82	8.2	-0.0288254041224718	1.09447889518924
83	8.3	-0.0301150761079043	1.08545119129121
84	8.4	-0.0301150761079043	1.07513381540775
85	8.5	-0.0288254041224718	1.06610611150973
86	8.6	-0.0301150761079043	1.0570784076117
87	8.7	-0.0288254041224718	1.04805070371367
88	8.8	-0.0314047480933368	1.03773332783021
89	8.9	-0.0288254041224718	1.02870562393218
90	9	-0.0301150761079043	1.01838824804872
91	9.1	-0.0301150761079043	1.0093605441507
92	9.2	-0.0314047480933368	0.999043168267235
93	9.3	-0.0301150761079043	0.990015464369208
94	9.4	-0.0314047480933368	0.979698088485748
95	9.5	-0.0314047480933368	0.969380712602288
96	9.6	-0.0288254041224718	0.959063336718827
97	9.7	-0.0301150761079043	0.948745960835367
98	9.8	-0.0301150761079043	0.93971825693734
99	9.9	-0.0301150761079043	0.92940088105388
100	10	-0.0301150761079043	0.920373177155852
101	10.1	-0.0314047480933368	0.910055801272392
102	10.2	-0.0301150761079043	0.901028097374365
103	10.3	-0.0301150761079043	0.892000393476337
104	10.4	-0.0314047480933368	0.881683017592877
105	10.5	-0.0314047480933368	0.87265531369485
106	10.6	-0.0301150761079043	0.864917281782255
107	10.7	-0.0314047480933368	0.855889577884227
108	10.8	-0.0301150761079043	0.845572202000767
109	10.9	-0.0301150761079043	0.836544498102739
110	11	-0.0314047480933368	0.828806466190144
111	11.1	-0.0314047480933368	0.819778762292117
112	11.2	-0.0301150761079043	0.810751058394089
113	11.3	-0.0326944200787693	0.801723354496062
114	11.4	-0.0301150761079043	0.792695650598034
115	11.5	-0.0326944200787693	0.783667946700007
116	11.6	-0.0301150761079043	0.773350570816547
117	11.7	-0.0314047480933368	0.764322866918519
118	11.8	-0.0314047480933368	0.755295163020492
119	11.9	-0.0326944200787693	0.746267459122464
120	12	-0.0326944200787693	0.735950083239004
121	12.1	-0.0301150761079043	0.728212051326409
122	12.2	-0.0326944200787693	0.719184347428381
123	12.3	-0.0314047480933368	0.710156643530354
124	12.4	-0.0314047480933368	0.701128939632326
125	12.5	-0.0326944200787693	0.692101235734299
126	12.6	-0.0301150761079043	0.683073531836271
127	12.7	-0.0326944200787693	0.675335499923676
128	12.8	-0.0314047480933368	0.666307796025649
129	12.9	-0.0314047480933368	0.657280092127621
130	13	-0.0314047480933368	0.648252388229594
131	13.1	-0.0301150761079043	0.639224684331566
132	13.2	-0.0326944200787693	0.628907308448106
133	13.3	-0.0314047480933368	0.619879604550079
134	13.4	-0.0314047480933368	0.609562228666618
135	13.5	-0.0314047480933368	0.600534524768591
136	13.6	-0.0326944200787693	0.590217148885131
137	13.7	-0.0326944200787693	0.581189444987103
138	13.8	-0.0339840920642018	0.570872069103643
139	13.9	-0.0314047480933368	0.560554693220183
140	14	-0.0326944200787693	0.551526989322156
141	14.1	-0.0314047480933368	0.541209613438696
142	14.2	-0.0314047480933368	0.532181909540668
143	14.3	-0.0314047480933368	0.521864533657208
144	14.4	-0.0314047480933368	0.512836829759181
145	14.5	-0.0326944200787693	0.502519453875721
146	14.6	-0.0301150761079043	0.493491749977693
147	14.7	-0.0314047480933368	0.484464046079665
148	14.8	-0.0326944200787693	0.474146670196205
149	14.9	-0.0326944200787693	0.465118966298178
150	15	-0.0352737640496343	0.45609126240015
151	15.1	-0.0314047480933368	0.447063558502123
152	15.2	-0.0314047480933368	0.436746182618663
153	15.3	-0.0314047480933368	0.426428806735203
154	15.4	-0.0314047480933368	0.417401102837175
155	15.5	-0.0326944200787693	0.407083726953715
156	15.6	-0.0326944200787693	0.398056023055688
157	15.7	-0.0326944200787693	0.387738647172228
158	15.8	-0.0326944200787693	0.377421271288767
159	15.9	-0.0339840920642018	0.365814223419875
160	16	-0.0314047480933368	0.356786519521847
161	16.1	-0.0352737640496343	0.34775881562382
162	16.2	-0.0314047480933368	0.33744143974036
163	16.3	-0.0326944200787693	0.329703407827765
164	16.4	-0.0326944200787693	0.319386031944305
165	16.5	-0.0339840920642018	0.309068656060845
166	16.6	-0.0326944200787693	0.300040952162817
167	16.7	-0.0326944200787693	0.29101324826479
168	16.8	-0.0326944200787693	0.28069587238133
169	16.9	-0.0326944200787693	0.270378496497869
170	17	-0.0339840920642018	0.261350792599842
171	17.1	-0.0326944200787693	0.251033416716382
172	17.2	-0.0314047480933368	0.242005712818354
173	17.3	-0.0339840920642018	0.231688336934894
174	17.4	-0.0326944200787693	0.221370961051434
175	17.5	-0.0326944200787693	0.211053585167974
176	17.6	-0.0326944200787693	0.200736209284514
177	17.7	-0.0339840920642018	0.191708505386487
178	17.8	-0.0326944200787693	0.181391129503027
179	17.9	-0.0326944200787693	0.172363425604999
180	18	-0.0314047480933368	0.162046049721539
181	18.1	-0.0326944200787693	0.153018345823511
182	18.2	-0.0339840920642018	0.143990641925484
183	18.3	-0.0339840920642018	0.133673266042024
184	18.4	-0.0339840920642018	0.124645562143996
185	18.5	-0.0326944200787693	0.113038514275104
186	18.6	-0.0339840920642018	0.104010810377076
187	18.7	-0.0326944200787693	0.0936934344936162
188	18.8	-0.0339840920642018	0.0833760586101562
189	18.9	-0.0339840920642018	0.0730586827266961
190	19	-0.0339840920642018	0.0627413068432361
191	19.1	-0.0326944200787693	0.052423930959776
192	19.2	-0.0339840920642018	0.042106555076316
193	19.3	-0.0326944200787693	0.0304995072074234
194	19.4	-0.0339840920642018	0.0201821313239634
195	19.5	-0.0339840920642018	0.0111544274259359
196	19.6	-0.0326944200787693	-0.000452620442956686
197	19.7	-0.0326944200787693	-0.0120596683118492
198	19.8	-0.0326944200787693	-0.0223770441953093
199	19.9	-0.0339840920642018	-0.0326944200787693
200	20	-0.0339840920642018	-0.0417221239767969
201	20.1	-0.0339840920642018	-0.0507498278748244
202	20.2	-0.0314047480933368	-0.0610672037582844
203	20.3	-0.0352737640496343	-0.070094907656312
204	20.4	-0.0339840920642018	-0.080412283539772
205	20.5	-0.0339840920642018	-0.0894399874377996
206	20.6	-0.0339840920642018	-0.0984676913358271
207	20.7	-0.0339840920642018	-0.108785067219287
208	20.8	-0.0339840920642018	-0.117812771117315
209	20.9	-0.0339840920642018	-0.126840475015342
210	21	-0.0352737640496343	-0.13586817891337
211	21.1	-0.0314047480933368	-0.144895882811397
212	21.2	-0.0326944200787693	-0.153923586709425
213	21.3	-0.0326944200787693	-0.162951290607452
214	21.4	-0.0339840920642018	-0.17197899450548
215	21.5	-0.0326944200787693	-0.179717026418075
216	21.6	-0.0352737640496343	-0.190034402301535
217	21.7	-0.0326944200787693	-0.19777243421413
218	21.8	-0.0339840920642018	-0.206800138112158
219	21.9	-0.0339840920642018	-0.215827842010185
220	22	-0.0339840920642018	-0.226145217893645
221	22.1	-0.0326944200787693	-0.23388324980624
222	22.2	-0.0326944200787693	-0.2442006256897
223	22.3	-0.0339840920642018	-0.253228329587728
224	22.4	-0.0326944200787693	-0.260966361500323
225	22.5	-0.0339840920642018	-0.26999406539835
226	22.6	-0.0326944200787693	-0.28031144128181
227	22.7	-0.0339840920642018	-0.289339145179838
228	22.8	-0.0326944200787693	-0.297077177092433
229	22.9	-0.0352737640496343	-0.307394552975893
230	23	-0.0326944200787693	-0.316422256873921
231	23.1	-0.0339840920642018	-0.324160288786516
232	23.2	-0.0339840920642018	-0.334477664669976
233	23.3	-0.0352737640496343	-0.342215696582571
234	23.4	-0.0339840920642018	-0.349953728495166
235	23.5	-0.0339840920642018	-0.358981432393193
236	23.6	-0.0339840920642018	-0.365429792320356
237	23.7	-0.0326944200787693	-0.374457496218383
238	23.8	-0.0339840920642018	-0.383485200116411
239	23.9	-0.0326944200787693	-0.392512904014438
240	24	-0.0352737640496343	-0.401540607912466
241	24.1	-0.0326944200787693	-0.410568311810493
242	24.2	-0.0339840920642018	-0.419596015708521
243	24.3	-0.0314047480933368	-0.428623719606549
244	24.4	-0.0326944200787693	-0.436361751519144
245	24.5	-0.0326944200787693	-0.445389455417171
246	24.6	-0.0326944200787693	-0.454417159315199
247	24.7	-0.0339840920642018	-0.463444863213226
248	24.8	-0.0326944200787693	-0.472472567111254
249	24.9	-0.0326944200787693	-0.481500271009281
250	25	-0.0326944200787693	-0.489238302921876
251	25.1	-0.0339840920642018	-0.498266006819904
252	25.2	-0.0326944200787693	-0.507293710717931
253	25.3	-0.0352737640496343	-0.515031742630526
254	25.4	-0.0326944200787693	-0.524059446528554
255	25.5	-0.0326944200787693	-0.531797478441149
256	25.6	-0.0339840920642018	-0.540825182339177
257	25.7	-0.0326944200787693	-0.548563214251772
258	25.8	-0.0326944200787693	-0.558880590135232
259	25.9	-0.0326944200787693	-0.566618622047827
260	26	-0.0339840920642018	-0.575646325945854
261	26.1	-0.0326944200787693	-0.585963701829314
262	26.2	-0.0339840920642018	-0.594991405727342
263	26.3	-0.0339840920642018	-0.602729437639937
264	26.4	-0.0339840920642018	-0.613046813523397
265	26.5	-0.0339840920642018	-0.620784845435992
266	26.6	-0.0326944200787693	-0.631102221319452
267	26.7	-0.0326944200787693	-0.638840253232047
268	26.8	-0.0352737640496343	-0.649157629115507
269	26.9	-0.0326944200787693	-0.656895661028102
270	27	-0.0314047480933368	-0.66592336492613
271	27.1	-0.0352737640496343	-0.674951068824157
272	27.2	-0.0339840920642018	-0.683978772722185
273	27.3	-0.0339840920642018	-0.69171680463478
274	27.4	-0.0352737640496343	-0.700744508532807
275	27.5	-0.0339840920642018	-0.709772212430835
276	27.6	-0.0339840920642018	-0.71751024434343
277	27.7	-0.0314047480933368	-0.726537948241457
278	27.8	-0.0326944200787693	-0.734275980154052
279	27.9	-0.0326944200787693	-0.74330368405208
280	28	-0.0326944200787693	-0.752331387950107
281	28.1	-0.0339840920642018	-0.761359091848135
282	28.2	-0.0314047480933368	-0.771676467731595
283	28.3	-0.0339840920642018	-0.77941449964419
284	28.4	-0.0326944200787693	-0.788442203542218
285	28.5	-0.0339840920642018	-0.797469907440245
286	28.6	-0.0339840920642018	-0.80520793935284
287	28.7	-0.0339840920642018	-0.814235643250868
288	28.8	-0.0314047480933368	-0.823263347148895
289	28.9	-0.0326944200787693	-0.83100137906149
290	29	-0.0326944200787693	-0.838739410974085
291	29.1	-0.0339840920642018	-0.84647744288668
292	29.2	-0.0314047480933368	-0.854215474799275
293	29.3	-0.0326944200787693	-0.863243178697303
294	29.4	-0.0326944200787693	-0.870981210609898
295	29.5	-0.0326944200787693	-0.880008914507926
296	29.6	-0.0301150761079043	-0.889036618405953
297	29.7	-0.0326944200787693	-0.898064322303981
298	29.8	-0.0339840920642018	-0.907092026202008
299	29.9	-0.0326944200787693	-0.914830058114603
300	30	-0.0326944200787693	-0.923857762012631
301	30.1	-0.0326944200787693	-0.934175137896091
302	30.2	-0.0339840920642018	-0.943202841794118
303	30.3	-0.0339840920642018	-0.952230545692146
304	30.4	-0.0326944200787693	-0.962547921575606
305	30.5	-0.0326944200787693	-0.970285953488201
306	30.6	-0.0326944200787693	-0.979313657386228
307	30.7	-0.0339840920642018	-0.988341361284256
308	30.8	-0.0314047480933368	-0.997369065182284
309	30.9	-0.0339840920642018	-1.00510709709488
310	31	-0.0326944200787693	-1.01413480099291
311	31.1	-0.0352737640496343	-1.02316250489093
312	31.2	-0.0326944200787693	-1.03219020878896
313	31.3	-0.0339840920642018	-1.04121791268699
314	31.4	-0.0339840920642018	-1.05024561658502
315	31.5	-0.0314047480933368	-1.05927332048304
316	31.6	-0.0326944200787693	-1.06701135239564
317	31.7	-0.0326944200787693	-1.07603905629367
318	31.8	-0.0339840920642018	-1.08377708820626
319	31.9	-0.0339840920642018	-1.09280479210429
320	32	-0.0326944200787693	-1.10183249600232
321	32.1	-0.0352737640496343	-1.11086019990034
322	32.2	-0.0339840920642018	-1.11988790379837
323	32.3	-0.0314047480933368	-1.1289156076964
324	32.4	-0.0339840920642018	-1.13923298357986
325	32.5	-0.0326944200787693	-1.14697101549245
326	32.6	-0.0352737640496343	-1.15599871939048
327	32.7	-0.0326944200787693	-1.16502642328851
328	32.8	-0.0326944200787693	-1.17147478321567
329	32.9	-0.0352737640496343	-1.1805024871137
330	33	-0.0326944200787693	-1.18953019101173
331	33.1	-0.0326944200787693	-1.19726822292432
332	33.2	-0.0326944200787693	-1.20500625483692
333	33.3	-0.0339840920642018	-1.21274428674951
334	33.4	-0.0314047480933368	-1.22048231866211
335	33.5	-0.0326944200787693	-1.2282203505747
336	33.6	-0.0326944200787693	-1.2359583824873
337	33.7	-0.0339840920642018	-1.24369641439989
338	33.8	-0.0339840920642018	-1.25143444631249
339	33.9	-0.0314047480933368	-1.26046215021051
340	34	-0.0339840920642018	-1.26948985410854
341	34.1	-0.0326944200787693	-1.27722788602114
342	34.2	-0.0326944200787693	-1.28625558991916
343	34.3	-0.0326944200787693	-1.29528329381719
344	34.4	-0.0326944200787693	-1.30302132572979
345	34.5	-0.0339840920642018	-1.31075935764238
346	34.6	-0.0326944200787693	-1.31849738955498
347	34.7	-0.0352737640496343	-1.32623542146757
348	34.8	-0.0326944200787693	-1.33397345338017
349	34.9	-0.0326944200787693	-1.34171148529276
350	35	-0.0352737640496343	-1.34944951720536
351	35.1	-0.0326944200787693	-1.35847722110339
352	35.2	-0.0339840920642018	-1.36492558103055
353	35.3	-0.0326944200787693	-1.37395328492858
354	35.4	-0.0339840920642018	-1.38169131684117
355	35.5	-0.0339840920642018	-1.3907190207392
356	35.6	-0.0326944200787693	-1.39845705265179
357	35.7	-0.0339840920642018	-1.40619508456439
358	35.8	-0.0352737640496343	-1.41522278846242
359	35.9	-0.0339840920642018	-1.42425049236044
360	36	-0.0326944200787693	-1.43198852427304
361	36.1	-0.0339840920642018	-1.44101622817107
362	36.2	-0.0326944200787693	-1.44875426008366
363	36.3	-0.0326944200787693	-1.45649229199626
364	36.4	-0.0326944200787693	-1.46423032390885
365	36.5	-0.0326944200787693	-1.47196835582145
366	36.6	-0.0339840920642018	-1.47970638773404
367	36.7	-0.0314047480933368	-1.48744441964664
368	36.8	-0.0326944200787693	-1.49260310758837
369	36.9	-0.0339840920642018	-1.50034113950096
370	37	-0.0314047480933368	-1.50678949942812
371	37.1	-0.0314047480933368	-1.51323785935529
372	37.2	-0.0339840920642018	-1.51968621928245
373	37.3	-0.0339840920642018	-1.52613457920961
374	37.4	-0.0339840920642018	-1.53129326715134
375	37.5	-0.0314047480933368	-1.5377416270785
376	37.6	-0.0339840920642018	-1.54418998700567
377	37.7	-0.0314047480933368	-1.55192801891826
378	37.8	-0.0326944200787693	-1.55966605083086
379	37.9	-0.0314047480933368	-1.56611441075802
380	38	-0.0314047480933368	-1.57127309869975
381	38.1	-0.0339840920642018	-1.57772145862691
382	38.2	-0.0314047480933368	-1.58288014656864
383	38.3	-0.0326944200787693	-1.5893285064958
384	38.4	-0.0314047480933368	-1.59448719443753
385	38.5	-0.0314047480933368	-1.6009355543647
386	38.6	-0.0314047480933368	-1.60609424230643
387	38.7	-0.0326944200787693	-1.61254260223359
388	38.8	-0.0314047480933368	-1.61641161818989
389	38.9	-0.0314047480933368	-1.62028063414618
390	39	-0.0326944200787693	-1.62285997811705
391	39.1	-0.0339840920642018	-1.62672899407335
392	39.2	-0.0326944200787693	-1.62930833804421
393	39.3	-0.0301150761079043	-1.63317735400051
394	39.4	-0.0326944200787693	-1.63446702598594
395	39.5	-0.0326944200787693	-1.63833604194224
396	39.6	-0.0314047480933368	-1.6409153859131
397	39.7	-0.0326944200787693	-1.64349472988397
398	39.8	-0.0314047480933368	-1.64607407385483
399	39.9	-0.0326944200787693	-1.6486534178257
400	40	-0.0326944200787693	-1.652522433782
401	40.1	-0.0326944200787693	-1.65381210576743
402	40.2	-0.0326944200787693	-1.65510177775286
403	40.3	-0.0339840920642018	-1.65639144973829
404	40.4	-0.0326944200787693	-1.65639144973829
405	40.5	-0.0326944200787693	-1.65768112172373
406	40.6	-0.0314047480933368	-1.65897079370916
407	40.7	-0.0326944200787693	-1.65897079370916
408	40.8	-0.0326944200787693	-1.65897079370916
409	40.9	-0.0314047480933368	-1.65768112172373
410	41	-0.0326944200787693	-1.65639144973829
411	41.1	-0.0314047480933368	-1.65639144973829
412	41.2	-0.0339840920642018	-1.65510177775286
413	41.3	-0.0314047480933368	-1.65381210576743
414	41.4	-0.0326944200787693	-1.652522433782
415	41.5	-0.0326944200787693	-1.652522433782
416	41.6	-0.0314047480933368	-1.652522433782
417	41.7	-0.0339840920642018	-1.652522433782
418	41.8	-0.0326944200787693	-1.65123276179656
419	41.9	-0.0339840920642018	-1.65123276179656
420	42	-0.0326944200787693	-1.65123276179656
421	42.1	-0.0339840920642018	-1.65123276179656
422	42.2	-0.0326944200787693	-1.65123276179656
423	42.3	-0.0365634360350668	-1.65123276179656
424	42.4	-0.0326944200787693	-1.65123276179656
425	42.5	-0.0352737640496343	-1.65123276179656
426	42.6	-0.0326944200787693	-1.64994308981113
427	42.7	-0.0339840920642018	-1.64994308981113
