Number of measurement points: 20610
Sample Rate (Hz): 100
Low limit Ch0 (V): -10
Upper limit Ch0 (V): 10
Low limit Ch1 (V): -10
Upper limit Ch1 (V): 10

Index	Time[s]	Ch0[V]	Ch1[V]
0	0	-0.00948032434098423	0.779798930743709
1	0.01	-0.0146390122827142	0.779798930743709
2	0.02	-0.0159286842681468	0.779798930743709
3	0.03	-0.0159286842681468	0.779798930743709
4	0.04	-0.0146390122827142	0.779798930743709
5	0.05	-0.0159286842681468	0.779798930743709
6	0.06	-0.0146390122827142	0.779798930743709
7	0.07	-0.0146390122827142	0.779798930743709
8	0.08	-0.0159286842681468	0.779798930743709
9	0.09	-0.0159286842681468	0.779798930743709
10	0.1	-0.0159286842681468	0.779798930743709
11	0.11	-0.0159286842681468	0.779798930743709
12	0.12	-0.0146390122827142	0.779798930743709
13	0.13	-0.0159286842681468	0.779798930743709
14	0.14	-0.0146390122827142	0.779798930743709
15	0.15	-0.0172183562535793	0.779798930743709
16	0.16	-0.0159286842681468	0.779798930743709
17	0.17	-0.0159286842681468	0.779798930743709
18	0.18	-0.0159286842681468	0.779798930743709
19	0.19	-0.0146390122827142	0.779798930743709
20	0.2	-0.0159286842681468	0.779798930743709
21	0.21	-0.0159286842681468	0.779798930743709
22	0.22	-0.0159286842681468	0.779798930743709
23	0.23	-0.0146390122827142	0.781088602729142
24	0.24	-0.0159286842681468	0.779798930743709
25	0.25	-0.0172183562535793	0.779798930743709
26	0.26	-0.0146390122827142	0.779798930743709
27	0.27	-0.0159286842681468	0.779798930743709
28	0.28	-0.0159286842681468	0.779798930743709
29	0.29	-0.0159286842681468	0.779798930743709
30	0.3	-0.0159286842681468	0.779798930743709
31	0.31	-0.0159286842681468	0.779798930743709
32	0.32	-0.0172183562535793	0.779798930743709
33	0.33	-0.0159286842681468	0.779798930743709
34	0.34	-0.0146390122827142	0.779798930743709
35	0.35	-0.0146390122827142	0.779798930743709
36	0.36	-0.0146390122827142	0.779798930743709
37	0.37	-0.0146390122827142	0.779798930743709
38	0.38	-0.0159286842681468	0.779798930743709
39	0.39	-0.0159286842681468	0.779798930743709
40	0.4	-0.0146390122827142	0.779798930743709
41	0.41	-0.0146390122827142	0.779798930743709
42	0.42	-0.0159286842681468	0.779798930743709
43	0.43	-0.0159286842681468	0.779798930743709
44	0.44	-0.0159286842681468	0.779798930743709
45	0.45	-0.0172183562535793	0.779798930743709
46	0.46	-0.0146390122827142	0.779798930743709
47	0.47	-0.0159286842681468	0.779798930743709
48	0.48	-0.0159286842681468	0.779798930743709
49	0.49	-0.0146390122827142	0.779798930743709
50	0.5	-0.0159286842681468	0.779798930743709
51	0.51	-0.0146390122827142	0.779798930743709
52	0.52	-0.0159286842681468	0.779798930743709
53	0.53	-0.0159286842681468	0.779798930743709
54	0.54	-0.0159286842681468	0.779798930743709
55	0.55	-0.0159286842681468	0.779798930743709
56	0.56	-0.0146390122827142	0.779798930743709
57	0.57	-0.0172183562535793	0.779798930743709
58	0.58	-0.0159286842681468	0.779798930743709
59	0.59	-0.0159286842681468	0.779798930743709
60	0.6	-0.0159286842681468	0.779798930743709
61	0.61	-0.0159286842681468	0.779798930743709
62	0.62	-0.0159286842681468	0.779798930743709
63	0.63	-0.0146390122827142	0.779798930743709
64	0.64	-0.0146390122827142	0.779798930743709
65	0.65	-0.0172183562535793	0.779798930743709
66	0.66	-0.0159286842681468	0.779798930743709
67	0.67	-0.0159286842681468	0.779798930743709
68	0.68	-0.0146390122827142	0.779798930743709
69	0.69	-0.0146390122827142	0.779798930743709
70	0.7	-0.0159286842681468	0.779798930743709
71	0.71	-0.0159286842681468	0.779798930743709
72	0.72	-0.0159286842681468	0.779798930743709
73	0.73	-0.0159286842681468	0.779798930743709
74	0.74	-0.0159286842681468	0.778509258758277
75	0.75	-0.0159286842681468	0.779798930743709
76	0.76	-0.0146390122827142	0.779798930743709
77	0.77	-0.0159286842681468	0.779798930743709
78	0.78	-0.0146390122827142	0.779798930743709
79	0.79	-0.0159286842681468	0.779798930743709
80	0.8	-0.0159286842681468	0.779798930743709
81	0.81	-0.0159286842681468	0.779798930743709
82	0.82	-0.0159286842681468	0.779798930743709
83	0.83	-0.0159286842681468	0.778509258758277
84	0.84	-0.0146390122827142	0.779798930743709
85	0.85	-0.0159286842681468	0.779798930743709
86	0.86	-0.0159286842681468	0.779798930743709
87	0.87	-0.0159286842681468	0.779798930743709
88	0.88	-0.0159286842681468	0.779798930743709
89	0.89	-0.0159286842681468	0.778509258758277
90	0.9	-0.0146390122827142	0.779798930743709
91	0.91	-0.0146390122827142	0.779798930743709
92	0.92	-0.0159286842681468	0.779798930743709
93	0.93	-0.0159286842681468	0.779798930743709
94	0.94	-0.0146390122827142	0.779798930743709
95	0.95	-0.0146390122827142	0.779798930743709
96	0.96	-0.0146390122827142	0.779798930743709
97	0.97	-0.0172183562535793	0.779798930743709
98	0.98	-0.0159286842681468	0.779798930743709
99	0.99	-0.0159286842681468	0.779798930743709
100	1	-0.0172183562535793	0.778509258758277
101	1.01	-0.0159286842681468	0.779798930743709
102	1.02	-0.0146390122827142	0.779798930743709
103	1.03	-0.0159286842681468	0.778509258758277
104	1.04	-0.0146390122827142	0.779798930743709
105	1.05	-0.0159286842681468	0.779798930743709
106	1.06	-0.0172183562535793	0.779798930743709
107	1.07	-0.0159286842681468	0.779798930743709
108	1.08	-0.0146390122827142	0.779798930743709
109	1.09	-0.0172183562535793	0.779798930743709
110	1.1	-0.0146390122827142	0.779798930743709
111	1.11	-0.0146390122827142	0.779798930743709
112	1.12	-0.0146390122827142	0.779798930743709
113	1.13	-0.0159286842681468	0.779798930743709
114	1.14	-0.0159286842681468	0.779798930743709
115	1.15	-0.0159286842681468	0.779798930743709
116	1.16	-0.0159286842681468	0.779798930743709
117	1.17	-0.0159286842681468	0.779798930743709
118	1.18	-0.0146390122827142	0.779798930743709
119	1.19	-0.0159286842681468	0.779798930743709
120	1.2	-0.0146390122827142	0.779798930743709
121	1.21	-0.0159286842681468	0.779798930743709
122	1.22	-0.0159286842681468	0.779798930743709
123	1.23	-0.0159286842681468	0.779798930743709
124	1.24	-0.0159286842681468	0.779798930743709
125	1.25	-0.0159286842681468	0.779798930743709
126	1.26	-0.0146390122827142	0.779798930743709
127	1.27	-0.0159286842681468	0.779798930743709
128	1.28	-0.0159286842681468	0.779798930743709
129	1.29	-0.0159286842681468	0.779798930743709
130	1.3	-0.0159286842681468	0.779798930743709
131	1.31	-0.0159286842681468	0.779798930743709
132	1.32	-0.0146390122827142	0.779798930743709
133	1.33	-0.0159286842681468	0.779798930743709
134	1.34	-0.0146390122827142	0.779798930743709
135	1.35	-0.0159286842681468	0.779798930743709
136	1.36	-0.0159286842681468	0.779798930743709
137	1.37	-0.0159286842681468	0.779798930743709
138	1.38	-0.0133493402972817	0.779798930743709
139	1.39	-0.0146390122827142	0.779798930743709
140	1.4	-0.0159286842681468	0.779798930743709
141	1.41	-0.0159286842681468	0.779798930743709
142	1.42	-0.0159286842681468	0.779798930743709
143	1.43	-0.0159286842681468	0.779798930743709
144	1.44	-0.0159286842681468	0.779798930743709
145	1.45	-0.0159286842681468	0.779798930743709
146	1.46	-0.0146390122827142	0.779798930743709
147	1.47	-0.0159286842681468	0.779798930743709
148	1.48	-0.0146390122827142	0.779798930743709
149	1.49	-0.0172183562535793	0.779798930743709
150	1.5	-0.0159286842681468	0.779798930743709
151	1.51	-0.0159286842681468	0.779798930743709
152	1.52	-0.0159286842681468	0.779798930743709
153	1.53	-0.0146390122827142	0.779798930743709
154	1.54	-0.0146390122827142	0.779798930743709
155	1.55	-0.0159286842681468	0.779798930743709
156	1.56	-0.0146390122827142	0.779798930743709
157	1.57	-0.0159286842681468	0.779798930743709
158	1.58	-0.0159286842681468	0.779798930743709
159	1.59	-0.0159286842681468	0.779798930743709
160	1.6	-0.0146390122827142	0.779798930743709
161	1.61	-0.0159286842681468	0.779798930743709
162	1.62	-0.0146390122827142	0.779798930743709
163	1.63	-0.0159286842681468	0.779798930743709
164	1.64	-0.0159286842681468	0.779798930743709
165	1.65	-0.0159286842681468	0.781088602729142
166	1.66	-0.0146390122827142	0.779798930743709
167	1.67	-0.0159286842681468	0.779798930743709
168	1.68	-0.0159286842681468	0.779798930743709
169	1.69	-0.0159286842681468	0.779798930743709
170	1.7	-0.0146390122827142	0.779798930743709
171	1.71	-0.0146390122827142	0.779798930743709
172	1.72	-0.0172183562535793	0.779798930743709
173	1.73	-0.0146390122827142	0.779798930743709
174	1.74	-0.0159286842681468	0.779798930743709
175	1.75	-0.0159286842681468	0.779798930743709
176	1.76	-0.0146390122827142	0.779798930743709
177	1.77	-0.0159286842681468	0.779798930743709
178	1.78	-0.0146390122827142	0.779798930743709
179	1.79	-0.0159286842681468	0.779798930743709
180	1.8	-0.0146390122827142	0.779798930743709
181	1.81	-0.0159286842681468	0.779798930743709
182	1.82	-0.0159286842681468	0.779798930743709
183	1.83	-0.0159286842681468	0.779798930743709
184	1.84	-0.0146390122827142	0.779798930743709
185	1.85	-0.0159286842681468	0.779798930743709
186	1.86	-0.0159286842681468	0.779798930743709
187	1.87	-0.0159286842681468	0.779798930743709
188	1.88	-0.0159286842681468	0.779798930743709
189	1.89	-0.0172183562535793	0.779798930743709
190	1.9	-0.0159286842681468	0.779798930743709
191	1.91	-0.0159286842681468	0.779798930743709
192	1.92	-0.0159286842681468	0.779798930743709
193	1.93	-0.0159286842681468	0.779798930743709
194	1.94	-0.0146390122827142	0.779798930743709
195	1.95	-0.0146390122827142	0.779798930743709
196	1.96	-0.0159286842681468	0.779798930743709
197	1.97	-0.0159286842681468	0.779798930743709
198	1.98	-0.0146390122827142	0.779798930743709
199	1.99	-0.0146390122827142	0.779798930743709
200	2	-0.0159286842681468	0.779798930743709
201	2.01	-0.0146390122827142	0.779798930743709
202	2.02	-0.0146390122827142	0.779798930743709
203	2.03	-0.0159286842681468	0.779798930743709
204	2.04	-0.0159286842681468	0.779798930743709
205	2.05	-0.0159286842681468	0.779798930743709
206	2.06	-0.0146390122827142	0.779798930743709
207	2.07	-0.0159286842681468	0.779798930743709
208	2.08	-0.0146390122827142	0.779798930743709
209	2.09	-0.0159286842681468	0.779798930743709
210	2.1	-0.0159286842681468	0.779798930743709
211	2.11	-0.0159286842681468	0.779798930743709
212	2.12	-0.0159286842681468	0.779798930743709
213	2.13	-0.0159286842681468	0.779798930743709
214	2.14	-0.0159286842681468	0.779798930743709
215	2.15	-0.0159286842681468	0.779798930743709
216	2.16	-0.0146390122827142	0.779798930743709
217	2.17	-0.0159286842681468	0.779798930743709
218	2.18	-0.0159286842681468	0.779798930743709
219	2.19	-0.0146390122827142	0.779798930743709
220	2.2	-0.0159286842681468	0.779798930743709
221	2.21	-0.0159286842681468	0.779798930743709
222	2.22	-0.0159286842681468	0.779798930743709
223	2.23	-0.0159286842681468	0.781088602729142
224	2.24	-0.0146390122827142	0.779798930743709
225	2.25	-0.0172183562535793	0.779798930743709
226	2.26	-0.0146390122827142	0.779798930743709
227	2.27	-0.0146390122827142	0.779798930743709
228	2.28	-0.0146390122827142	0.779798930743709
229	2.29	-0.0159286842681468	0.779798930743709
230	2.3	-0.0146390122827142	0.779798930743709
231	2.31	-0.0172183562535793	0.779798930743709
232	2.32	-0.0159286842681468	0.779798930743709
233	2.33	-0.0159286842681468	0.779798930743709
234	2.34	-0.0159286842681468	0.779798930743709
235	2.35	-0.0159286842681468	0.779798930743709
236	2.36	-0.0146390122827142	0.779798930743709
237	2.37	-0.0159286842681468	0.779798930743709
238	2.38	-0.0146390122827142	0.779798930743709
239	2.39	-0.0159286842681468	0.779798930743709
240	2.4	-0.0146390122827142	0.779798930743709
241	2.41	-0.0159286842681468	0.779798930743709
242	2.42	-0.0146390122827142	0.779798930743709
243	2.43	-0.0146390122827142	0.779798930743709
244	2.44	-0.0159286842681468	0.779798930743709
245	2.45	-0.0159286842681468	0.779798930743709
246	2.46	-0.0146390122827142	0.779798930743709
247	2.47	-0.0172183562535793	0.778509258758277
248	2.48	-0.0159286842681468	0.779798930743709
249	2.49	-0.0159286842681468	0.779798930743709
250	2.5	-0.0146390122827142	0.779798930743709
251	2.51	-0.0159286842681468	0.779798930743709
252	2.52	-0.0159286842681468	0.779798930743709
253	2.53	-0.0146390122827142	0.779798930743709
254	2.54	-0.0159286842681468	0.779798930743709
255	2.55	-0.0159286842681468	0.778509258758277
256	2.56	-0.0146390122827142	0.779798930743709
257	2.57	-0.0159286842681468	0.779798930743709
258	2.58	-0.0159286842681468	0.779798930743709
259	2.59	-0.0146390122827142	0.779798930743709
260	2.6	-0.0146390122827142	0.779798930743709
261	2.61	-0.0159286842681468	0.778509258758277
262	2.62	-0.0146390122827142	0.779798930743709
263	2.63	-0.0159286842681468	0.779798930743709
264	2.64	-0.0146390122827142	0.779798930743709
265	2.65	-0.0159286842681468	0.779798930743709
266	2.66	-0.0159286842681468	0.779798930743709
267	2.67	-0.0146390122827142	0.778509258758277
268	2.68	-0.0146390122827142	0.779798930743709
269	2.69	-0.0146390122827142	0.779798930743709
270	2.7	-0.0146390122827142	0.779798930743709
271	2.71	-0.0146390122827142	0.778509258758277
272	2.72	-0.0159286842681468	0.779798930743709
273	2.73	-0.0146390122827142	0.779798930743709
274	2.74	-0.0146390122827142	0.779798930743709
275	2.75	-0.0146390122827142	0.779798930743709
276	2.76	-0.0159286842681468	0.779798930743709
277	2.77	-0.0159286842681468	0.779798930743709
278	2.78	-0.0159286842681468	0.779798930743709
279	2.79	-0.0146390122827142	0.779798930743709
280	2.8	-0.0159286842681468	0.779798930743709
281	2.81	-0.0159286842681468	0.779798930743709
282	2.82	-0.0159286842681468	0.779798930743709
283	2.83	-0.0146390122827142	0.779798930743709
284	2.84	-0.0159286842681468	0.779798930743709
285	2.85	-0.0172183562535793	0.779798930743709
286	2.86	-0.0159286842681468	0.779798930743709
287	2.87	-0.0159286842681468	0.778509258758277
288	2.88	-0.0159286842681468	0.779798930743709
289	2.89	-0.0146390122827142	0.779798930743709
290	2.9	-0.0146390122827142	0.778509258758277
291	2.91	-0.0172183562535793	0.778509258758277
292	2.92	-0.0172183562535793	0.779798930743709
293	2.93	-0.0159286842681468	0.779798930743709
294	2.94	-0.0146390122827142	0.778509258758277
295	2.95	-0.0159286842681468	0.778509258758277
296	2.96	-0.0159286842681468	0.779798930743709
297	2.97	-0.0159286842681468	0.779798930743709
298	2.98	-0.0159286842681468	0.779798930743709
299	2.99	-0.0146390122827142	0.778509258758277
300	3	-0.0172183562535793	0.779798930743709
301	3.01	-0.0172183562535793	0.778509258758277
302	3.02	-0.0159286842681468	0.778509258758277
303	3.03	-0.0159286842681468	0.778509258758277
304	3.04	-0.0159286842681468	0.778509258758277
305	3.05	-0.0159286842681468	0.779798930743709
306	3.06	-0.0159286842681468	0.778509258758277
307	3.07	-0.0159286842681468	0.778509258758277
308	3.08	-0.0159286842681468	0.779798930743709
309	3.09	-0.0159286842681468	0.779798930743709
310	3.1	-0.0146390122827142	0.778509258758277
311	3.11	-0.0159286842681468	0.779798930743709
312	3.12	-0.0159286842681468	0.778509258758277
313	3.13	-0.0159286842681468	0.779798930743709
314	3.14	-0.0146390122827142	0.779798930743709
315	3.15	-0.0159286842681468	0.779798930743709
316	3.16	-0.0159286842681468	0.779798930743709
317	3.17	-0.0159286842681468	0.778509258758277
318	3.18	-0.0159286842681468	0.779798930743709
319	3.19	-0.0159286842681468	0.778509258758277
320	3.2	-0.0159286842681468	0.779798930743709
321	3.21	-0.0146390122827142	0.778509258758277
322	3.22	-0.0159286842681468	0.778509258758277
323	3.23	-0.0159286842681468	0.778509258758277
324	3.24	-0.0159286842681468	0.778509258758277
325	3.25	-0.0159286842681468	0.779798930743709
326	3.26	-0.0146390122827142	0.779798930743709
327	3.27	-0.0172183562535793	0.778509258758277
328	3.28	-0.0159286842681468	0.779798930743709
329	3.29	-0.0146390122827142	0.778509258758277
330	3.3	-0.0146390122827142	0.779798930743709
331	3.31	-0.0159286842681468	0.778509258758277
332	3.32	-0.0159286842681468	0.779798930743709
333	3.33	-0.0159286842681468	0.779798930743709
334	3.34	-0.0159286842681468	0.778509258758277
335	3.35	-0.0159286842681468	0.779798930743709
336	3.36	-0.0159286842681468	0.778509258758277
337	3.37	-0.0159286842681468	0.778509258758277
338	3.38	-0.0159286842681468	0.778509258758277
339	3.39	-0.0159286842681468	0.778509258758277
340	3.4	-0.0159286842681468	0.778509258758277
341	3.41	-0.0159286842681468	0.778509258758277
342	3.42	-0.0146390122827142	0.778509258758277
343	3.43	-0.0159286842681468	0.779798930743709
344	3.44	-0.0159286842681468	0.778509258758277
345	3.45	-0.0159286842681468	0.778509258758277
346	3.46	-0.0159286842681468	0.778509258758277
347	3.47	-0.0159286842681468	0.778509258758277
348	3.48	-0.0159286842681468	0.779798930743709
349	3.49	-0.0159286842681468	0.778509258758277
350	3.5	-0.0159286842681468	0.779798930743709
351	3.51	-0.0159286842681468	0.778509258758277
352	3.52	-0.0146390122827142	0.778509258758277
353	3.53	-0.0172183562535793	0.778509258758277
354	3.54	-0.0159286842681468	0.779798930743709
355	3.55	-0.0146390122827142	0.779798930743709
356	3.56	-0.0159286842681468	0.778509258758277
357	3.57	-0.0159286842681468	0.778509258758277
358	3.58	-0.0159286842681468	0.778509258758277
359	3.59	-0.0146390122827142	0.779798930743709
360	3.6	-0.0146390122827142	0.778509258758277
361	3.61	-0.0159286842681468	0.778509258758277
362	3.62	-0.0159286842681468	0.778509258758277
363	3.63	-0.0146390122827142	0.779798930743709
364	3.64	-0.0146390122827142	0.779798930743709
365	3.65	-0.0159286842681468	0.779798930743709
366	3.66	-0.0159286842681468	0.778509258758277
367	3.67	-0.0159286842681468	0.779798930743709
368	3.68	-0.0159286842681468	0.779798930743709
369	3.69	-0.0159286842681468	0.778509258758277
370	3.7	-0.0146390122827142	0.778509258758277
371	3.71	-0.0159286842681468	0.778509258758277
372	3.72	-0.0159286842681468	0.778509258758277
373	3.73	-0.0159286842681468	0.778509258758277
374	3.74	-0.0146390122827142	0.779798930743709
375	3.75	-0.0159286842681468	0.778509258758277
376	3.76	-0.0146390122827142	0.778509258758277
377	3.77	-0.0159286842681468	0.778509258758277
378	3.78	-0.0146390122827142	0.779798930743709
379	3.79	-0.0159286842681468	0.778509258758277
380	3.8	-0.0146390122827142	0.779798930743709
381	3.81	-0.0146390122827142	0.778509258758277
382	3.82	-0.0159286842681468	0.778509258758277
383	3.83	-0.0159286842681468	0.779798930743709
384	3.84	-0.0146390122827142	0.779798930743709
385	3.85	-0.0172183562535793	0.778509258758277
386	3.86	-0.0172183562535793	0.779798930743709
387	3.87	-0.0159286842681468	0.779798930743709
388	3.88	-0.0159286842681468	0.779798930743709
389	3.89	-0.0159286842681468	0.779798930743709
390	3.9	-0.0146390122827142	0.778509258758277
391	3.91	-0.0172183562535793	0.778509258758277
392	3.92	-0.0146390122827142	0.778509258758277
393	3.93	-0.0159286842681468	0.778509258758277
394	3.94	-0.0159286842681468	0.779798930743709
395	3.95	-0.0146390122827142	0.778509258758277
396	3.96	-0.0146390122827142	0.778509258758277
397	3.97	-0.0159286842681468	0.778509258758277
398	3.98	-0.0146390122827142	0.778509258758277
399	3.99	-0.0159286842681468	0.778509258758277
400	4	-0.0159286842681468	0.778509258758277
401	4.01	-0.0172183562535793	0.778509258758277
402	4.02	-0.0133493402972817	0.777219586772844
403	4.03	-0.0159286842681468	0.777219586772844
404	4.04	-0.0159286842681468	0.778509258758277
405	4.05	-0.0159286842681468	0.777219586772844
406	4.06	-0.0146390122827142	0.777219586772844
407	4.07	-0.0146390122827142	0.777219586772844
408	4.08	-0.0159286842681468	0.777219586772844
409	4.09	-0.0146390122827142	0.777219586772844
410	4.1	-0.0133493402972817	0.777219586772844
411	4.11	-0.0146390122827142	0.777219586772844
412	4.12	-0.0146390122827142	0.777219586772844
413	4.13	-0.0159286842681468	0.777219586772844
414	4.14	-0.0133493402972817	0.775929914787412
415	4.15	-0.0146390122827142	0.775929914787412
416	4.16	-0.0146390122827142	0.775929914787412
417	4.17	-0.0133493402972817	0.777219586772844
418	4.18	-0.0146390122827142	0.775929914787412
419	4.19	-0.0146390122827142	0.777219586772844
420	4.2	-0.0133493402972817	0.775929914787412
421	4.21	-0.0133493402972817	0.775929914787412
422	4.22	-0.0133493402972817	0.775929914787412
423	4.23	-0.0146390122827142	0.775929914787412
424	4.24	-0.0133493402972817	0.774640242801979
