Number of measurement points: 3201
Sample Rate (Hz): 40
Low limit Ch0 (V): -10
Upper limit Ch0 (V): 10
Low limit Ch1 (V): -10
Upper limit Ch1 (V): 10

Index	Time[s]	Ch0[V]	Ch1[V]
0	0	-0.0030319644138217	0.41482175886631
1	0.025	-0.0030319644138217	0.41482175886631
2	0.05	-0.00174229242838919	0.41482175886631
3	0.075	-0.00174229242838919	0.41482175886631
4	0.1	-0.0030319644138217	0.41482175886631
5	0.125	-0.0030319644138217	0.416111430851743
6	0.15	-0.0030319644138217	0.416111430851743
7	0.175	-0.0030319644138217	0.41482175886631
8	0.2	-0.0030319644138217	0.41482175886631
9	0.225	-0.0030319644138217	0.41482175886631
10	0.25	-0.0030319644138217	0.41482175886631
11	0.275	-0.0030319644138217	0.41482175886631
12	0.3	-0.0030319644138217	0.41482175886631
13	0.325	-0.0030319644138217	0.41482175886631
14	0.35	-0.0030319644138217	0.416111430851743
15	0.375	-0.0030319644138217	0.41482175886631
16	0.4	-0.0030319644138217	0.41482175886631
17	0.425	-0.0030319644138217	0.41482175886631
18	0.45	-0.0030319644138217	0.41482175886631
19	0.475	-0.00174229242838919	0.41482175886631
20	0.5	-0.0030319644138217	0.41482175886631
21	0.525	-0.0030319644138217	0.41482175886631
22	0.55	-0.0030319644138217	0.41482175886631
23	0.575	-0.0030319644138217	0.41482175886631
24	0.6	-0.0030319644138217	0.41482175886631
25	0.625	-0.0030319644138217	0.41482175886631
26	0.65	-0.00174229242838919	0.41482175886631
27	0.675	-0.0030319644138217	0.41482175886631
28	0.7	-0.0030319644138217	0.41482175886631
29	0.725	-0.0030319644138217	0.416111430851743
30	0.75	-0.0030319644138217	0.416111430851743
31	0.775	-0.0030319644138217	0.41482175886631
32	0.8	-0.0030319644138217	0.41482175886631
33	0.825	-0.0030319644138217	0.41482175886631
34	0.85	-0.0030319644138217	0.416111430851743
35	0.875	-0.0030319644138217	0.41482175886631
36	0.9	-0.00174229242838919	0.41482175886631
37	0.925	-0.00174229242838919	0.416111430851743
38	0.95	-0.0030319644138217	0.416111430851743
39	0.975	-0.0030319644138217	0.41482175886631
40	1	-0.0030319644138217	0.41482175886631
41	1.025	-0.0030319644138217	0.41482175886631
42	1.05	-0.0030319644138217	0.41482175886631
43	1.075	-0.0030319644138217	0.41482175886631
44	1.1	-0.0030319644138217	0.41482175886631
45	1.125	-0.0030319644138217	0.41482175886631
46	1.15	-0.0030319644138217	0.416111430851743
47	1.175	-0.0030319644138217	0.416111430851743
48	1.2	-0.00174229242838919	0.41482175886631
49	1.225	-0.0030319644138217	0.41482175886631
50	1.25	-0.00174229242838919	0.416111430851743
51	1.275	-0.0030319644138217	0.416111430851743
52	1.3	-0.00174229242838919	0.41482175886631
53	1.325	-0.0030319644138217	0.416111430851743
54	1.35	-0.00174229242838919	0.41482175886631
55	1.375	-0.00174229242838919	0.41482175886631
56	1.4	-0.00174229242838919	0.41482175886631
57	1.425	-0.0030319644138217	0.416111430851743
58	1.45	-0.0030319644138217	0.41482175886631
59	1.475	-0.00174229242838919	0.41482175886631
60	1.5	-0.00174229242838919	0.41482175886631
61	1.525	-0.0030319644138217	0.41482175886631
62	1.55	-0.0030319644138217	0.416111430851743
63	1.575	-0.00174229242838919	0.41482175886631
64	1.6	-0.0030319644138217	0.41482175886631
65	1.625	-0.00174229242838919	0.41482175886631
66	1.65	-0.0030319644138217	0.41482175886631
67	1.675	-0.0030319644138217	0.416111430851743
68	1.7	-0.0030319644138217	0.41482175886631
69	1.725	-0.0030319644138217	0.41482175886631
70	1.75	-0.0030319644138217	0.416111430851743
71	1.775	-0.00174229242838919	0.416111430851743
72	1.8	-0.0030319644138217	0.41482175886631
73	1.825	-0.00174229242838919	0.41482175886631
74	1.85	-0.0030319644138217	0.41482175886631
75	1.875	-0.0030319644138217	0.41482175886631
76	1.9	-0.0030319644138217	0.41482175886631
77	1.925	-0.0030319644138217	0.41482175886631
78	1.95	-0.0030319644138217	0.416111430851743
79	1.975	-0.0030319644138217	0.416111430851743
80	2	-0.0030319644138217	0.41482175886631
81	2.025	-0.0030319644138217	0.416111430851743
82	2.05	-0.00174229242838919	0.41482175886631
83	2.075	-0.0030319644138217	0.416111430851743
84	2.1	-0.0030319644138217	0.41482175886631
85	2.125	-0.00174229242838919	0.416111430851743
86	2.15	-0.0030319644138217	0.41482175886631
87	2.175	-0.00174229242838919	0.41482175886631
88	2.2	-0.0030319644138217	0.41482175886631
89	2.225	-0.0030319644138217	0.41482175886631
90	2.25	-0.0030319644138217	0.416111430851743
91	2.275	-0.0030319644138217	0.416111430851743
92	2.3	-0.00174229242838919	0.416111430851743
93	2.325	-0.0030319644138217	0.41482175886631
94	2.35	-0.0030319644138217	0.41482175886631
95	2.375	-0.0030319644138217	0.41482175886631
96	2.4	-0.00174229242838919	0.41482175886631
97	2.425	-0.0030319644138217	0.41482175886631
98	2.45	-0.0030319644138217	0.41482175886631
99	2.475	-0.0030319644138217	0.41482175886631
100	2.5	-0.0030319644138217	0.41482175886631
101	2.525	-0.0030319644138217	0.41482175886631
102	2.55	-0.0030319644138217	0.416111430851743
103	2.575	-0.00174229242838919	0.41482175886631
104	2.6	-0.0030319644138217	0.41482175886631
105	2.625	-0.0030319644138217	0.41482175886631
106	2.65	-0.0030319644138217	0.41482175886631
107	2.675	-0.0030319644138217	0.41482175886631
108	2.7	-0.00174229242838919	0.41482175886631
109	2.725	-0.00174229242838919	0.41482175886631
110	2.75	-0.0030319644138217	0.416111430851743
111	2.775	-0.0030319644138217	0.416111430851743
112	2.8	-0.00174229242838919	0.41482175886631
113	2.825	-0.00174229242838919	0.416111430851743
114	2.85	-0.0030319644138217	0.416111430851743
115	2.875	-0.0030319644138217	0.41482175886631
116	2.9	-0.0030319644138217	0.41482175886631
117	2.925	-0.00174229242838919	0.41482175886631
118	2.95	-0.0030319644138217	0.41482175886631
119	2.975	-0.0030319644138217	0.41482175886631
120	3	-0.0030319644138217	0.416111430851743
121	3.025	-0.0030319644138217	0.416111430851743
122	3.05	-0.00174229242838919	0.41482175886631
123	3.075	-0.0030319644138217	0.416111430851743
124	3.1	-0.0030319644138217	0.41482175886631
125	3.125	-0.00174229242838919	0.41482175886631
126	3.15	-0.0030319644138217	0.416111430851743
127	3.175	-0.0030319644138217	0.41482175886631
128	3.2	-0.00174229242838919	0.416111430851743
129	3.225	-0.0030319644138217	0.41482175886631
130	3.25	-0.00174229242838919	0.41482175886631
131	3.275	-0.0030319644138217	0.41482175886631
132	3.3	-0.0030319644138217	0.41482175886631
133	3.325	-0.00174229242838919	0.41482175886631
134	3.35	-0.0030319644138217	0.41482175886631
135	3.375	-0.0030319644138217	0.41482175886631
136	3.4	-0.00174229242838919	0.41482175886631
137	3.425	-0.0030319644138217	0.41482175886631
138	3.45	-0.00174229242838919	0.413532086880878
139	3.475	-0.00174229242838919	0.41482175886631
140	3.5	-0.0030319644138217	0.413532086880878
141	3.525	-0.0030319644138217	0.413532086880878
142	3.55	-0.00174229242838919	0.413532086880878
143	3.575	-0.0030319644138217	0.413532086880878
144	3.6	-0.00174229242838919	0.413532086880878
145	3.625	-0.00174229242838919	0.412242414895445
146	3.65	-0.00174229242838919	0.412242414895445
147	3.675	-0.00174229242838919	0.412242414895445
148	3.7	-0.00174229242838919	0.412242414895445
149	3.725	-0.0030319644138217	0.412242414895445
150	3.75	-0.00174229242838919	0.410952742910013
151	3.775	-0.00174229242838919	0.410952742910013
152	3.8	-0.00174229242838919	0.410952742910013
153	3.825	-0.00174229242838919	0.410952742910013
154	3.85	-0.00174229242838919	0.40966307092458
155	3.875	-0.00174229242838919	0.40966307092458
156	3.9	-0.00174229242838919	0.40966307092458
157	3.925	-0.00174229242838919	0.40966307092458
158	3.95	-0.00174229242838919	0.408373398939148
159	3.975	-0.00174229242838919	0.408373398939148
160	4	-0.0030319644138217	0.408373398939148
161	4.025	-0.00174229242838919	0.408373398939148
162	4.05	-0.00174229242838919	0.408373398939148
163	4.075	-0.00174229242838919	0.407083726953715
164	4.1	-0.00174229242838919	0.407083726953715
165	4.125	-0.00174229242838919	0.405794054968283
166	4.15	-0.00174229242838919	0.405794054968283
167	4.175	-0.00174229242838919	0.405794054968283
168	4.2	-0.00174229242838919	0.405794054968283
169	4.225	-0.00174229242838919	0.405794054968283
170	4.25	-0.00174229242838919	0.405794054968283
171	4.275	-0.0030319644138217	0.40450438298285
172	4.3	-0.00174229242838919	0.40450438298285
173	4.325	-0.00174229242838919	0.403214710997418
174	4.35	-0.00174229242838919	0.403214710997418
175	4.375	-0.00174229242838919	0.403214710997418
176	4.4	-0.00174229242838919	0.403214710997418
177	4.425	-0.00174229242838919	0.403214710997418
178	4.45	-0.00174229242838919	0.403214710997418
179	4.475	-0.00174229242838919	0.401925039011985
180	4.5	-0.00174229242838919	0.401925039011985
181	4.525	-0.00174229242838919	0.401925039011985
182	4.55	-0.00174229242838919	0.401925039011985
183	4.575	-0.00174229242838919	0.401925039011985
184	4.6	-0.00174229242838919	0.400635367026553
185	4.625	-0.0030319644138217	0.400635367026553
186	4.65	-0.00174229242838919	0.39934569504112
187	4.675	-0.0030319644138217	0.39934569504112
188	4.7	-0.0030319644138217	0.39934569504112
189	4.725	-0.0030319644138217	0.398056023055688
190	4.75	-0.00174229242838919	0.398056023055688
191	4.775	-0.0030319644138217	0.398056023055688
192	4.8	-0.0030319644138217	0.395476679084823
193	4.825	-0.0030319644138217	0.396766351070255
194	4.85	-0.0030319644138217	0.395476679084823
195	4.875	-0.0030319644138217	0.395476679084823
196	4.9	-0.0030319644138217	0.395476679084823
197	4.925	-0.0043216363992542	0.39418700709939
198	4.95	-0.0030319644138217	0.39418700709939
199	4.975	-0.0030319644138217	0.392897335113958
200	5	-0.0030319644138217	0.392897335113958
201	5.025	-0.0030319644138217	0.392897335113958
202	5.05	-0.0030319644138217	0.392897335113958
203	5.075	-0.0030319644138217	0.391607663128525
204	5.1	-0.0043216363992542	0.391607663128525
205	5.125	-0.0030319644138217	0.390317991143093
206	5.15	-0.0030319644138217	0.390317991143093
207	5.175	-0.0030319644138217	0.38902831915766
208	5.2	-0.0030319644138217	0.38902831915766
209	5.225	-0.0030319644138217	0.387738647172228
210	5.25	-0.0030319644138217	0.387738647172228
211	5.275	-0.0030319644138217	0.386448975186795
212	5.3	-0.0030319644138217	0.386448975186795
213	5.325	-0.0030319644138217	0.386448975186795
214	5.35	-0.0030319644138217	0.386448975186795
215	5.375	-0.0030319644138217	0.385159303201362
216	5.4	-0.0030319644138217	0.385159303201362
217	5.425	-0.0030319644138217	0.38386963121593
218	5.45	-0.00174229242838919	0.38386963121593
219	5.475	-0.0030319644138217	0.38386963121593
220	5.5	-0.0030319644138217	0.382579959230497
221	5.525	-0.0030319644138217	0.381290287245065
222	5.55	-0.0030319644138217	0.381290287245065
223	5.575	-0.0030319644138217	0.381290287245065
224	5.6	-0.0030319644138217	0.380000615259632
225	5.625	-0.0030319644138217	0.3787109432742
226	5.65	-0.0030319644138217	0.3787109432742
227	5.675	-0.0030319644138217	0.3787109432742
228	5.7	-0.00174229242838919	0.377421271288767
229	5.725	-0.0030319644138217	0.377421271288767
230	5.75	-0.00174229242838919	0.376131599303335
231	5.775	-0.0030319644138217	0.376131599303335
232	5.8	-0.00174229242838919	0.374841927317902
233	5.825	-0.00174229242838919	0.374841927317902
234	5.85	-0.00174229242838919	0.37355225533247
235	5.875	-0.00174229242838919	0.37355225533247
236	5.9	-0.00174229242838919	0.372262583347037
237	5.925	-0.00174229242838919	0.372262583347037
238	5.95	-0.00174229242838919	0.372262583347037
239	5.975	-0.00174229242838919	0.370972911361605
240	6	-0.000452620442956686	0.369683239376172
241	6.025	-0.00174229242838919	0.369683239376172
242	6.05	-0.00174229242838919	0.36839356739074
243	6.075	-0.00174229242838919	0.36839356739074
244	6.1	-0.000452620442956686	0.367103895405307
245	6.125	-0.000452620442956686	0.367103895405307
246	6.15	-0.00174229242838919	0.365814223419875
247	6.175	-0.000452620442956686	0.365814223419875
248	6.2	-0.00174229242838919	0.364524551434442
249	6.225	-0.00174229242838919	0.36323487944901
250	6.25	-0.000452620442956686	0.36323487944901
251	6.275	-0.00174229242838919	0.361945207463577
252	6.3	-0.00174229242838919	0.36323487944901
253	6.325	-0.00174229242838919	0.360655535478145
254	6.35	-0.00174229242838919	0.360655535478145
255	6.375	-0.00174229242838919	0.360655535478145
256	6.4	-0.00174229242838919	0.359365863492712
257	6.425	-0.00174229242838919	0.359365863492712
258	6.45	-0.00174229242838919	0.35807619150728
259	6.475	-0.00174229242838919	0.35807619150728
260	6.5	-0.00174229242838919	0.356786519521847
261	6.525	-0.00174229242838919	0.356786519521847
262	6.55	-0.00174229242838919	0.355496847536415
263	6.575	-0.00174229242838919	0.355496847536415
264	6.6	-0.00174229242838919	0.354207175550982
265	6.625	-0.00174229242838919	0.354207175550982
266	6.65	-0.00174229242838919	0.354207175550982
267	6.675	-0.0030319644138217	0.35291750356555
268	6.7	-0.00174229242838919	0.35291750356555
269	6.725	-0.00174229242838919	0.35291750356555
270	6.75	-0.00174229242838919	0.351627831580117
271	6.775	-0.0030319644138217	0.351627831580117
272	6.8	-0.0030319644138217	0.350338159594685
273	6.825	-0.0030319644138217	0.351627831580117
274	6.85	-0.00174229242838919	0.350338159594685
275	6.875	-0.0030319644138217	0.349048487609252
276	6.9	-0.0030319644138217	0.349048487609252
277	6.925	-0.0030319644138217	0.349048487609252
278	6.95	-0.0030319644138217	0.34775881562382
279	6.975	-0.0030319644138217	0.34775881562382
280	7	-0.0030319644138217	0.34775881562382
281	7.025	-0.0043216363992542	0.346469143638387
282	7.05	-0.0030319644138217	0.346469143638387
283	7.075	-0.0030319644138217	0.346469143638387
284	7.1	-0.0030319644138217	0.345179471652955
285	7.125	-0.0030319644138217	0.343889799667522
286	7.15	-0.0030319644138217	0.343889799667522
287	7.175	-0.0030319644138217	0.343889799667522
288	7.2	-0.0030319644138217	0.34260012768209
289	7.225	-0.0030319644138217	0.34260012768209
290	7.25	-0.0030319644138217	0.34260012768209
291	7.275	-0.0030319644138217	0.34260012768209
292	7.3	-0.0030319644138217	0.341310455696657
293	7.325	-0.0030319644138217	0.341310455696657
294	7.35	-0.0030319644138217	0.341310455696657
295	7.375	-0.0030319644138217	0.340020783711225
296	7.4	-0.0030319644138217	0.340020783711225
297	7.425	-0.0030319644138217	0.340020783711225
298	7.45	-0.0030319644138217	0.338731111725792
299	7.475	-0.0030319644138217	0.338731111725792
300	7.5	-0.00174229242838919	0.338731111725792
301	7.525	-0.00174229242838919	0.33744143974036
302	7.55	-0.00174229242838919	0.33744143974036
303	7.575	-0.0030319644138217	0.33744143974036
304	7.6	-0.0030319644138217	0.33744143974036
305	7.625	-0.00174229242838919	0.336151767754927
306	7.65	-0.00174229242838919	0.336151767754927
307	7.675	-0.00174229242838919	0.336151767754927
308	7.7	-0.0030319644138217	0.336151767754927
309	7.725	-0.00174229242838919	0.334862095769495
310	7.75	-0.00174229242838919	0.334862095769495
311	7.775	-0.00174229242838919	0.333572423784062
312	7.8	-0.000452620442956686	0.333572423784062
313	7.825	-0.00174229242838919	0.333572423784062
314	7.85	-0.00174229242838919	0.333572423784062
315	7.875	-0.00174229242838919	0.333572423784062
316	7.9	-0.00174229242838919	0.33228275179863
317	7.925	-0.00174229242838919	0.33228275179863
318	7.95	-0.00174229242838919	0.33228275179863
319	7.975	-0.00174229242838919	0.33228275179863
320	8	-0.00174229242838919	0.33228275179863
321	8.025	-0.00174229242838919	0.330993079813197
322	8.05	-0.000452620442956686	0.330993079813197
323	8.075	-0.00174229242838919	0.330993079813197
324	8.1	-0.00174229242838919	0.329703407827765
325	8.125	-0.00174229242838919	0.329703407827765
326	8.15	-0.00174229242838919	0.328413735842332
327	8.175	-0.00174229242838919	0.329703407827765
328	8.2	-0.00174229242838919	0.328413735842332
329	8.225	-0.00174229242838919	0.328413735842332
330	8.25	-0.00174229242838919	0.328413735842332
331	8.275	-0.000452620442956686	0.3271240638569
332	8.3	-0.00174229242838919	0.3271240638569
333	8.325	-0.00174229242838919	0.325834391871467
334	8.35	-0.00174229242838919	0.325834391871467
335	8.375	-0.00174229242838919	0.325834391871467
336	8.4	-0.00174229242838919	0.324544719886035
337	8.425	-0.00174229242838919	0.324544719886035
338	8.45	-0.00174229242838919	0.324544719886035
339	8.475	-0.00174229242838919	0.324544719886035
340	8.5	-0.00174229242838919	0.323255047900602
341	8.525	-0.00174229242838919	0.323255047900602
342	8.55	-0.00174229242838919	0.323255047900602
343	8.575	-0.00174229242838919	0.32196537591517
344	8.6	-0.00174229242838919	0.323255047900602
345	8.625	-0.0030319644138217	0.32196537591517
346	8.65	-0.00174229242838919	0.32196537591517
347	8.675	-0.0030319644138217	0.32196537591517
348	8.7	-0.00174229242838919	0.32196537591517
349	8.725	-0.00174229242838919	0.32196537591517
350	8.75	-0.0030319644138217	0.320675703929737
351	8.775	-0.00174229242838919	0.320675703929737
352	8.8	-0.0030319644138217	0.320675703929737
353	8.825	-0.0030319644138217	0.320675703929737
354	8.85	-0.0030319644138217	0.319386031944305
355	8.875	-0.0043216363992542	0.319386031944305
356	8.9	-0.0030319644138217	0.318096359958872
357	8.925	-0.0043216363992542	0.318096359958872
358	8.95	-0.0030319644138217	0.318096359958872
359	8.975	-0.0030319644138217	0.318096359958872
360	9	-0.0043216363992542	0.31680668797344
361	9.025	-0.0043216363992542	0.31680668797344
362	9.05	-0.0043216363992542	0.31680668797344
363	9.075	-0.0043216363992542	0.315517015988007
364	9.1	-0.0043216363992542	0.315517015988007
365	9.125	-0.0043216363992542	0.315517015988007
366	9.15	-0.0043216363992542	0.314227344002575
367	9.175	-0.0043216363992542	0.314227344002575
368	9.2	-0.0043216363992542	0.314227344002575
369	9.225	-0.0043216363992542	0.314227344002575
370	9.25	-0.0043216363992542	0.312937672017142
371	9.275	-0.0043216363992542	0.312937672017142
372	9.3	-0.0043216363992542	0.312937672017142
373	9.325	-0.0043216363992542	0.31164800003171
374	9.35	-0.00561130838468671	0.31164800003171
375	9.375	-0.0043216363992542	0.31164800003171
376	9.4	-0.0043216363992542	0.310358328046277
377	9.425	-0.0043216363992542	0.310358328046277
378	9.45	-0.0043216363992542	0.310358328046277
379	9.475	-0.0043216363992542	0.309068656060845
380	9.5	-0.0043216363992542	0.309068656060845
381	9.525	-0.0043216363992542	0.309068656060845
382	9.55	-0.0043216363992542	0.307778984075412
383	9.575	-0.0043216363992542	0.307778984075412
384	9.6	-0.0043216363992542	0.307778984075412
385	9.625	-0.0043216363992542	0.30648931208998
386	9.65	-0.0043216363992542	0.30648931208998
387	9.675	-0.0043216363992542	0.30648931208998
388	9.7	-0.0030319644138217	0.305199640104547
389	9.725	-0.0043216363992542	0.305199640104547
390	9.75	-0.0043216363992542	0.305199640104547
391	9.775	-0.0030319644138217	0.305199640104547
392	9.8	-0.0030319644138217	0.305199640104547
393	9.825	-0.0030319644138217	0.303909968119115
394	9.85	-0.0030319644138217	0.302620296133682
395	9.875	-0.0030319644138217	0.302620296133682
396	9.9	-0.0030319644138217	0.302620296133682
397	9.925	-0.0030319644138217	0.302620296133682
398	9.95	-0.0030319644138217	0.302620296133682
399	9.975	-0.0030319644138217	0.30133062414825
400	10	-0.0030319644138217	0.30133062414825
401	10.025	-0.0030319644138217	0.30133062414825
402	10.05	-0.0030319644138217	0.30133062414825
403	10.075	-0.0030319644138217	0.30133062414825
404	10.1	-0.0030319644138217	0.30133062414825
405	10.125	-0.0030319644138217	0.300040952162817
406	10.15	-0.0030319644138217	0.300040952162817
407	10.175	-0.0030319644138217	0.300040952162817
408	10.2	-0.00174229242838919	0.300040952162817
409	10.225	-0.0030319644138217	0.298751280177385
410	10.25	-0.0030319644138217	0.298751280177385
411	10.275	-0.0030319644138217	0.298751280177385
412	10.3	-0.00174229242838919	0.297461608191952
413	10.325	-0.0030319644138217	0.297461608191952
414	10.35	-0.00174229242838919	0.297461608191952
415	10.375	-0.00174229242838919	0.297461608191952
416	10.4	-0.00174229242838919	0.297461608191952
417	10.425	-0.00174229242838919	0.29617193620652
418	10.45	-0.0030319644138217	0.29617193620652
419	10.475	-0.00174229242838919	0.294882264221087
420	10.5	-0.00174229242838919	0.294882264221087
