Number of measurement points: 802
Sample Rate (Hz): 20
Low limit Ch0 (V): -10
Upper limit Ch0 (V): 10
Low limit Ch1 (V): -10
Upper limit Ch1 (V): 10

Index	Time[s]	Ch0[V]	Ch1[V]
0	0	-0.00174229242838919	-0.398961263941601
1	0.05	-0.00174229242838919	-0.398961263941601
2	0.1	-0.00174229242838919	-0.398961263941601
3	0.15	-0.00174229242838919	-0.398961263941601
4	0.2	-0.00174229242838919	-0.400250935927033
5	0.25	-0.00174229242838919	-0.398961263941601
6	0.3	-0.00174229242838919	-0.398961263941601
7	0.35	-0.00174229242838919	-0.398961263941601
8	0.4	-0.00174229242838919	-0.398961263941601
9	0.45	-0.00174229242838919	-0.398961263941601
10	0.5	-0.00174229242838919	-0.398961263941601
11	0.55	-0.00174229242838919	-0.398961263941601
12	0.6	-0.00174229242838919	-0.398961263941601
13	0.65	-0.000452620442956686	-0.400250935927033
14	0.7	-0.000452620442956686	-0.398961263941601
15	0.75	-0.00174229242838919	-0.398961263941601
16	0.8	-0.00174229242838919	-0.398961263941601
17	0.85	-0.00174229242838919	-0.398961263941601
18	0.9	-0.00174229242838919	-0.398961263941601
19	0.95	-0.000452620442956686	-0.398961263941601
20	1	-0.00174229242838919	-0.398961263941601
21	1.05	-0.00174229242838919	-0.398961263941601
22	1.1	-0.00174229242838919	-0.398961263941601
23	1.15	-0.00174229242838919	-0.398961263941601
24	1.2	-0.00174229242838919	-0.398961263941601
25	1.25	-0.00174229242838919	-0.398961263941601
26	1.3	-0.00174229242838919	-0.398961263941601
27	1.35	-0.00174229242838919	-0.397671591956168
28	1.4	-0.00174229242838919	-0.397671591956168
29	1.45	-0.00174229242838919	-0.397671591956168
30	1.5	-0.0030319644138217	-0.397671591956168
31	1.55	-0.00174229242838919	-0.396381919970736
32	1.6	-0.00174229242838919	-0.396381919970736
33	1.65	-0.00174229242838919	-0.395092247985303
34	1.7	-0.00174229242838919	-0.393802575999871
35	1.75	-0.0030319644138217	-0.393802575999871
36	1.8	-0.0030319644138217	-0.392512904014438
37	1.85	-0.0030319644138217	-0.392512904014438
38	1.9	-0.0030319644138217	-0.391223232029006
39	1.95	-0.0030319644138217	-0.391223232029006
40	2	-0.0030319644138217	-0.389933560043573
41	2.05	-0.0030319644138217	-0.388643888058141
42	2.1	-0.0030319644138217	-0.387354216072708
43	2.15	-0.0043216363992542	-0.386064544087276
44	2.2	-0.0030319644138217	-0.386064544087276
45	2.25	-0.0043216363992542	-0.384774872101843
46	2.3	-0.0043216363992542	-0.383485200116411
47	2.35	-0.0043216363992542	-0.382195528130978
48	2.4	-0.0043216363992542	-0.382195528130978
49	2.45	-0.0043216363992542	-0.380905856145546
50	2.5	-0.0043216363992542	-0.380905856145546
51	2.55	-0.0043216363992542	-0.379616184160113
52	2.6	-0.0043216363992542	-0.378326512174681
53	2.65	-0.0043216363992542	-0.377036840189248
54	2.7	-0.0043216363992542	-0.377036840189248
55	2.75	-0.0043216363992542	-0.375747168203816
56	2.8	-0.0043216363992542	-0.374457496218383
57	2.85	-0.0043216363992542	-0.374457496218383
58	2.9	-0.0043216363992542	-0.373167824232951
59	2.95	-0.0043216363992542	-0.371878152247518
60	3	-0.0043216363992542	-0.371878152247518
61	3.05	-0.0043216363992542	-0.370588480262086
62	3.1	-0.0043216363992542	-0.369298808276653
63	3.15	-0.0043216363992542	-0.369298808276653
64	3.2	-0.0043216363992542	-0.368009136291221
65	3.25	-0.0043216363992542	-0.366719464305788
66	3.3	-0.0043216363992542	-0.366719464305788
67	3.35	-0.0043216363992542	-0.365429792320356
68	3.4	-0.0043216363992542	-0.364140120334923
69	3.45	-0.0030319644138217	-0.362850448349491
70	3.5	-0.0030319644138217	-0.362850448349491
71	3.55	-0.0030319644138217	-0.361560776364058
72	3.6	-0.0030319644138217	-0.360271104378626
73	3.65	-0.0030319644138217	-0.360271104378626
74	3.7	-0.0030319644138217	-0.358981432393193
75	3.75	-0.0030319644138217	-0.357691760407761
76	3.8	-0.00174229242838919	-0.356402088422328
77	3.85	-0.0030319644138217	-0.356402088422328
78	3.9	-0.0030319644138217	-0.355112416436896
79	3.95	-0.00174229242838919	-0.353822744451463
80	4	-0.00174229242838919	-0.353822744451463
81	4.05	-0.00174229242838919	-0.352533072466031
82	4.1	-0.0030319644138217	-0.351243400480598
83	4.15	-0.000452620442956686	-0.349953728495166
84	4.2	-0.00174229242838919	-0.349953728495166
85	4.25	-0.000452620442956686	-0.348664056509733
86	4.3	-0.00174229242838919	-0.347374384524301
87	4.35	-0.00174229242838919	-0.346084712538868
88	4.4	-0.000452620442956686	-0.344795040553436
89	4.45	-0.00174229242838919	-0.343505368568003
90	4.5	-0.00174229242838919	-0.342215696582571
91	4.55	-0.000452620442956686	-0.342215696582571
92	4.6	-0.000452620442956686	-0.340926024597138
93	4.65	-0.000452620442956686	-0.339636352611706
94	4.7	-0.00174229242838919	-0.338346680626273
95	4.75	-0.00174229242838919	-0.338346680626273
96	4.8	-0.00174229242838919	-0.335767336655408
97	4.85	-0.00174229242838919	-0.335767336655408
98	4.9	-0.00174229242838919	-0.334477664669976
99	4.95	-0.00174229242838919	-0.333187992684543
100	5	-0.00174229242838919	-0.331898320699111
101	5.05	-0.0030319644138217	-0.330608648713678
102	5.1	-0.0030319644138217	-0.329318976728246
103	5.15	-0.0030319644138217	-0.329318976728246
104	5.2	-0.0030319644138217	-0.328029304742813
105	5.25	-0.0043216363992542	-0.326739632757381
106	5.3	-0.0030319644138217	-0.325449960771948
107	5.35	-0.0043216363992542	-0.325449960771948
108	5.4	-0.0043216363992542	-0.324160288786516
109	5.45	-0.0043216363992542	-0.322870616801083
110	5.5	-0.0030319644138217	-0.322870616801083
111	5.55	-0.0043216363992542	-0.321580944815651
112	5.6	-0.0043216363992542	-0.320291272830218
113	5.65	-0.0043216363992542	-0.319001600844786
114	5.7	-0.00561130838468671	-0.317711928859353
115	5.75	-0.0043216363992542	-0.316422256873921
116	5.8	-0.00561130838468671	-0.315132584888488
117	5.85	-0.0043216363992542	-0.315132584888488
118	5.9	-0.00561130838468671	-0.313842912903056
119	5.95	-0.00561130838468671	-0.312553240917623
120	6	-0.00690098037011921	-0.312553240917623
121	6.05	-0.00561130838468671	-0.309973896946758
122	6.1	-0.00690098037011921	-0.309973896946758
123	6.15	-0.00561130838468671	-0.308684224961326
124	6.2	-0.00561130838468671	-0.307394552975893
125	6.25	-0.00561130838468671	-0.307394552975893
126	6.3	-0.00690098037011921	-0.306104880990461
127	6.35	-0.00690098037011921	-0.304815209005028
128	6.4	-0.00561130838468671	-0.302235865034163
129	6.45	-0.00561130838468671	-0.302235865034163
130	6.5	-0.00690098037011921	-0.30094619304873
131	6.55	-0.00690098037011921	-0.30094619304873
132	6.6	-0.00561130838468671	-0.299656521063298
133	6.65	-0.00561130838468671	-0.298366849077865
134	6.7	-0.00561130838468671	-0.298366849077865
135	6.75	-0.00561130838468671	-0.295787505107
136	6.8	-0.00561130838468671	-0.297077177092433
137	6.85	-0.00561130838468671	-0.295787505107
138	6.9	-0.0043216363992542	-0.294497833121568
139	6.95	-0.00561130838468671	-0.293208161136135
140	7	-0.0043216363992542	-0.293208161136135
141	7.05	-0.0043216363992542	-0.29062881716527
142	7.1	-0.0043216363992542	-0.289339145179838
143	7.15	-0.0043216363992542	-0.289339145179838
144	7.2	-0.0043216363992542	-0.288049473194405
145	7.25	-0.0043216363992542	-0.286759801208973
146	7.3	-0.0043216363992542	-0.286759801208973
147	7.35	-0.0043216363992542	-0.28547012922354
148	7.4	-0.0030319644138217	-0.284180457238108
149	7.45	-0.0043216363992542	-0.282890785252675
150	7.5	-0.0030319644138217	-0.281601113267243
151	7.55	-0.0030319644138217	-0.28031144128181
152	7.6	-0.0030319644138217	-0.28031144128181
153	7.65	-0.0030319644138217	-0.277732097310945
154	7.7	-0.00174229242838919	-0.277732097310945
155	7.75	-0.0030319644138217	-0.276442425325513
156	7.8	-0.00174229242838919	-0.27515275334008
157	7.85	-0.00174229242838919	-0.273863081354648
158	7.9	-0.00174229242838919	-0.273863081354648
159	7.95	-0.00174229242838919	-0.272573409369215
160	8	-0.00174229242838919	-0.271283737383783
161	8.05	-0.00174229242838919	-0.26999406539835
162	8.1	-0.000452620442956686	-0.26999406539835
163	8.15	-0.00174229242838919	-0.268704393412918
164	8.2	-0.00174229242838919	-0.267414721427485
165	8.25	-0.00174229242838919	-0.266125049442053
166	8.3	-0.00174229242838919	-0.26483537745662
167	8.35	-0.00174229242838919	-0.263545705471188
168	8.4	-0.0030319644138217	-0.262256033485755
169	8.45	-0.0030319644138217	-0.260966361500323
170	8.5	-0.0030319644138217	-0.260966361500323
171	8.55	-0.0030319644138217	-0.25967668951489
172	8.6	-0.0030319644138217	-0.258387017529458
173	8.65	-0.0043216363992542	-0.257097345544025
174	8.7	-0.0043216363992542	-0.255807673558593
175	8.75	-0.0043216363992542	-0.25451800157316
176	8.8	-0.00561130838468671	-0.25451800157316
177	8.85	-0.00561130838468671	-0.253228329587728
178	8.9	-0.00561130838468671	-0.253228329587728
179	8.95	-0.00561130838468671	-0.251938657602295
180	9	-0.00690098037011921	-0.250648985616863
181	9.05	-0.00690098037011921	-0.24935931363143
182	9.1	-0.00690098037011921	-0.24935931363143
183	9.15	-0.00819065235555172	-0.248069641645998
184	9.2	-0.00819065235555172	-0.246779969660565
185	9.25	-0.00819065235555172	-0.245490297675133
186	9.3	-0.00819065235555172	-0.2442006256897
187	9.35	-0.00819065235555172	-0.242910953704268
188	9.4	-0.00948032434098423	-0.242910953704268
189	9.45	-0.00948032434098423	-0.241621281718835
190	9.5	-0.00948032434098423	-0.241621281718835
191	9.55	-0.00948032434098423	-0.240331609733403
192	9.6	-0.00948032434098423	-0.23904193774797
193	9.65	-0.0107699963264167	-0.237752265762538
194	9.7	-0.0107699963264167	-0.236462593777105
195	9.75	-0.0107699963264167	-0.236462593777105
196	9.8	-0.0107699963264167	-0.23388324980624
197	9.85	-0.0120596683118492	-0.23388324980624
198	9.9	-0.0107699963264167	-0.232593577820808
199	9.95	-0.0107699963264167	-0.231303905835375
200	10	-0.00948032434098423	-0.230014233849943
201	10.05	-0.0107699963264167	-0.22872456186451
202	10.1	-0.0107699963264167	-0.227434889879078
203	10.15	-0.0107699963264167	-0.226145217893645
204	10.2	-0.0107699963264167	-0.224855545908213
205	10.25	-0.00948032434098423	-0.22356587392278
206	10.3	-0.00948032434098423	-0.222276201937348
207	10.35	-0.00948032434098423	-0.222276201937348
208	10.4	-0.00819065235555172	-0.220986529951915
209	10.45	-0.00819065235555172	-0.219696857966483
210	10.5	-0.00819065235555172	-0.21840718598105
211	10.55	-0.00819065235555172	-0.217117513995618
212	10.6	-0.00690098037011921	-0.215827842010185
213	10.65	-0.00690098037011921	-0.215827842010185
214	10.7	-0.00561130838468671	-0.214538170024753
215	10.75	-0.00561130838468671	-0.21324849803932
216	10.8	-0.00561130838468671	-0.211958826053888
217	10.85	-0.0043216363992542	-0.209379482083023
218	10.9	-0.0043216363992542	-0.209379482083023
219	10.95	-0.0030319644138217	-0.20808981009759
220	11	-0.00174229242838919	-0.206800138112158
221	11.05	-0.0030319644138217	-0.205510466126725
222	11.1	-0.00174229242838919	-0.204220794141293
223	11.15	-0.00174229242838919	-0.20293112215586
224	11.2	-0.00174229242838919	-0.201641450170428
225	11.25	-0.000452620442956686	-0.200351778184995
226	11.3	-0.00174229242838919	-0.199062106199563
227	11.35	-0.00174229242838919	-0.19777243421413
228	11.4	-0.00174229242838919	-0.196482762228698
229	11.45	-0.00174229242838919	-0.195193090243265
230	11.5	-0.0043216363992542	-0.193903418257833
231	11.55	-0.0030319644138217	-0.1926137462724
232	11.6	-0.00561130838468671	-0.1926137462724
233	11.65	-0.00561130838468671	-0.191324074286968
234	11.7	-0.00690098037011921	-0.188744730316103
235	11.75	-0.00819065235555172	-0.18745505833067
236	11.8	-0.00819065235555172	-0.186165386345237
237	11.85	-0.0107699963264167	-0.184875714359805
238	11.9	-0.0120596683118492	-0.183586042374372
239	11.95	-0.0120596683118492	-0.18229637038894
240	12	-0.0133493402972817	-0.18229637038894
241	12.05	-0.0146390122827142	-0.181006698403507
242	12.1	-0.0159286842681468	-0.179717026418075
243	12.15	-0.0172183562535793	-0.178427354432642
244	12.2	-0.0172183562535793	-0.17713768244721
245	12.25	-0.0185080282390118	-0.17713768244721
246	12.3	-0.0185080282390118	-0.175848010461777
247	12.35	-0.0197977002244443	-0.174558338476345
248	12.4	-0.0197977002244443	-0.174558338476345
249	12.45	-0.0210873722098768	-0.173268666490912
250	12.5	-0.0223770441953093	-0.173268666490912
251	12.55	-0.0236667161807418	-0.170689322520047
252	12.6	-0.0236667161807418	-0.170689322520047
253	12.65	-0.0249563881661743	-0.169399650534615
254	12.7	-0.0249563881661743	-0.169399650534615
255	12.75	-0.0275357321370393	-0.168109978549182
256	12.8	-0.0288254041224718	-0.16682030656375
257	12.85	-0.0288254041224718	-0.165530634578317
258	12.9	-0.0301150761079043	-0.165530634578317
259	12.95	-0.0301150761079043	-0.164240962592885
260	13	-0.0314047480933368	-0.162951290607452
261	13.05	-0.0314047480933368	-0.162951290607452
262	13.1	-0.0314047480933368	-0.16166161862202
263	13.15	-0.0314047480933368	-0.160371946636587
264	13.2	-0.0314047480933368	-0.160371946636587
265	13.25	-0.0314047480933368	-0.159082274651155
266	13.3	-0.0326944200787693	-0.157792602665722
267	13.35	-0.0314047480933368	-0.15650293068029
268	13.4	-0.0301150761079043	-0.15650293068029
269	13.45	-0.0314047480933368	-0.155213258694857
270	13.5	-0.0314047480933368	-0.153923586709425
271	13.55	-0.0301150761079043	-0.152633914723992
272	13.6	-0.0288254041224718	-0.15134424273856
273	13.65	-0.0288254041224718	-0.15134424273856
274	13.7	-0.0275357321370393	-0.15134424273856
275	13.75	-0.0262460601516068	-0.150054570753127
276	13.8	-0.0262460601516068	-0.148764898767695
277	13.85	-0.0262460601516068	-0.147475226782262
278	13.9	-0.0236667161807418	-0.14618555479683
279	13.95	-0.0223770441953093	-0.14618555479683
280	14	-0.0210873722098768	-0.143606210825965
281	14.05	-0.0185080282390118	-0.143606210825965
282	14.1	-0.0172183562535793	-0.142316538840532
283	14.15	-0.0146390122827142	-0.1410268668551
284	14.2	-0.0133493402972817	-0.1410268668551
285	14.25	-0.0120596683118492	-0.138447522884235
286	14.3	-0.0107699963264167	-0.138447522884235
287	14.35	-0.00819065235555172	-0.13586817891337
288	14.4	-0.00690098037011921	-0.13586817891337
289	14.45	-0.00690098037011921	-0.134578506927937
290	14.5	-0.00561130838468671	-0.131999162957072
291	14.55	-0.0030319644138217	-0.131999162957072
292	14.6	-0.0030319644138217	-0.13070949097164
293	14.65	-0.0030319644138217	-0.129419818986207
294	14.7	-0.0030319644138217	-0.129419818986207
295	14.75	-0.0030319644138217	-0.128130147000775
296	14.8	-0.0030319644138217	-0.126840475015342
297	14.85	-0.0030319644138217	-0.12555080302991
298	14.9	-0.0030319644138217	-0.124261131044477
299	14.95	-0.0043216363992542	-0.122971459059045
300	15	-0.00561130838468671	-0.121681787073612
301	15.05	-0.00690098037011921	-0.121681787073612
302	15.1	-0.00819065235555172	-0.12039211508818
303	15.15	-0.00948032434098423	-0.12039211508818
304	15.2	-0.0120596683118492	-0.117812771117315
305	15.25	-0.0133493402972817	-0.117812771117315
306	15.3	-0.0172183562535793	-0.116523099131882
307	15.35	-0.0197977002244443	-0.11523342714645
308	15.4	-0.0223770441953093	-0.11523342714645
309	15.45	-0.0262460601516068	-0.113943755161017
310	15.5	-0.0288254041224718	-0.113943755161017
311	15.55	-0.0339840920642018	-0.112654083175585
312	15.6	-0.0378531080204993	-0.111364411190152
313	15.65	-0.0430117959622294	-0.11007473920472
314	15.7	-0.0443014679476619	-0.11007473920472
315	15.75	-0.0520394998602569	-0.108785067219287
316	15.8	-0.0571981878019869	-0.108785067219287
317	15.85	-0.0610672037582844	-0.107495395233855
318	15.9	-0.067515563685447	-0.106205723248422
319	15.95	-0.072674251627177	-0.106205723248422
320	16	-0.0765432675834745	-0.10491605126299
321	16.05	-0.077832939568907	-0.10491605126299
322	16.1	-0.082991627510637	-0.103626379277557
323	16.15	-0.0855709714815021	-0.103626379277557
324	16.2	-0.0920193314086646	-0.102336707292125
325	16.25	-0.0945986753795296	-0.102336707292125
326	16.3	-0.0984676913358271	-0.101047035306692
327	16.35	-0.10491605126299	-0.0997573633212596
328	16.4	-0.111364411190152	-0.101047035306692
329	16.45	-0.117812771117315	-0.0997573633212596
330	16.5	-0.124261131044477	-0.0997573633212596
331	16.55	-0.128130147000775	-0.0984676913358271
332	16.6	-0.134578506927937	-0.0984676913358271
333	16.65	-0.142316538840532	-0.0971780193503946
334	16.7	-0.148764898767695	-0.0971780193503946
335	16.75	-0.16166161862202	-0.0958883473649621
336	16.8	-0.175848010461777	-0.0945986753795296
337	16.85	-0.18745505833067	-0.0933090033940971
338	16.9	-0.205510466126725	-0.0933090033940971
339	16.95	-0.220986529951915	-0.0920193314086646
340	17	-0.242910953704268	-0.0920193314086646
341	17.05	-0.258387017529458	-0.0907296594232321
342	17.1	-0.267414721427485	-0.0894399874377996
343	17.15	-0.28547012922354	-0.0894399874377996
344	17.2	-0.298366849077865	-0.0881503154523671
345	17.25	-0.316422256873921	-0.0868606434669346
346	17.3	-0.330608648713678	-0.0855709714815021
347	17.35	-0.346084712538868	-0.0855709714815021
348	17.4	-0.368009136291221	-0.082991627510637
349	17.45	-0.383485200116411	-0.082991627510637
350	17.5	-0.397671591956168	-0.0817019555252045
351	17.55	-0.406699295854196	-0.080412283539772
352	17.6	-0.422175359679386	-0.080412283539772
353	17.65	-0.438941095490009	-0.0791226115543395
354	17.7	-0.449258471373469	-0.077832939568907
355	17.75	-0.462155191227794	-0.077832939568907
356	17.8	-0.472472567111254	-0.0765432675834745
357	17.85	-0.484079614980146	-0.075253595598042
358	17.9	-0.496976334834471	-0.0739639236126095
359	17.95	-0.509873054688796	-0.0739639236126095
360	18	-0.527928462484851	-0.072674251627177
361	18.05	-0.535666494397447	-0.0713845796417445
362	18.1	-0.545983870280907	-0.0713845796417445
363	18.15	-0.555011574178934	-0.070094907656312
364	18.2	-0.560170262120664	-0.070094907656312
365	18.25	-0.573066981974989	-0.0688052356708795
366	18.3	-0.579515341902152	-0.067515563685447
367	18.35	-0.582094685873017	-0.067515563685447
368	18.4	-0.591122389771044	-0.067515563685447
369	18.45	-0.598860421683639	-0.0662258917000145
370	18.5	-0.605308781610802	-0.064936219714582
371	18.55	-0.622074517421424	-0.0636465477291495
372	18.6	-0.632391893304884	-0.0636465477291495
373	18.65	-0.636260909261182	-0.062356875743717
374	18.7	-0.656895661028102	-0.0610672037582844
375	18.75	-0.653026645071805	-0.0610672037582844
376	18.8	-0.662054348969832	-0.0597775317728519
377	18.85	-0.669792380882427	-0.0597775317728519
378	18.9	-0.67624074080959	-0.0584878597874194
379	18.95	-0.678820084780455	-0.0571981878019869
380	19	-0.69171680463478	-0.0571981878019869
381	19.05	-0.690427132649347	-0.0571981878019869
382	19.1	-0.693006476620212	-0.0559085158165544
383	19.15	-0.69687549257651	-0.0559085158165544
384	19.2	-0.70719286845997	-0.0559085158165544
385	19.25	-0.70719286845997	-0.0533291718456894
386	19.3	-0.713641228387132	-0.0533291718456894
387	19.35	-0.70719286845997	-0.0520394998602569
388	19.4	-0.705903196474537	-0.0520394998602569
389	19.45	-0.711061884416267	-0.0507498278748244
390	19.5	-0.70203418051824	-0.0494601558893919
391	19.55	-0.708482540445402	-0.0494601558893919
392	19.6	-0.703323852503672	-0.0481704839039594
393	19.65	-0.703323852503672	-0.0468808119185269
394	19.7	-0.699454836547375	-0.0455911399330944
395	19.75	-0.690427132649347	-0.0455911399330944
396	19.8	-0.68655811669305	-0.0443014679476619
397	19.85	-0.682689100736752	-0.0430117959622294
398	19.9	-0.669792380882427	-0.0417221239767969
399	19.95	-0.667213036911562	-0.0404324519913644
400	20	-0.653026645071805	-0.0404324519913644
401	20.05	-0.647867957130075	-0.0391427800059319
402	20.1	-0.638840253232047	-0.0378531080204993
403	20.15	-0.627233205363154	-0.0378531080204993
404	20.2	-0.624653861392289	-0.0365634360350668
405	20.25	-0.614336485508829	-0.0365634360350668
406	20.3	-0.606598453596234	-0.0352737640496343
407	20.35	-0.598860421683639	-0.0339840920642018
408	20.4	-0.587253373814747	-0.0339840920642018
409	20.45	-0.575646325945854	-0.0326944200787693
410	20.5	-0.560170262120664	-0.0314047480933368
411	20.55	-0.551142558222637	-0.0314047480933368
412	20.6	-0.540825182339177	-0.0301150761079043
413	20.65	-0.530507806455716	-0.0288254041224718
